2025/9/30 13:59:59.769:Tag: 单相智能电表3(3) 等级:错误日志 信息: modbus readDataFromSocketE ok skid: 11 ret:23 expRxLen:23 

2025/9/30 13:59:59.773:Tag: 单相智能电表3(3) 等级:接收报文 信息:03 03 12 4e 95 07 cb 00 00 05 0a 00 00 0f a8 00 00 09 12 00 00 f7 81
2025/9/30 13:59:59.777:Tag: 单相智能电表4(4) 等级:发送报文 信息:04 03 00 02 00 09 24 59
2025/9/30 13:59:59.781:Tag: 单相智能电表4(4) 等级:信息日志 信息: modbus-> sendDataToSocket ok skid: 11 ret:8 m_bufLen:8 

2025/9/30 14:00:00.041:Tag: 单相智能电表4(4) 等级:错误日志 信息: modbus readDataFromSocketE ok skid: 11 ret:23 expRxLen:23 

2025/9/30 14:00:00.045:Tag: 单相智能电表4(4) 等级:接收报文 信息:04 03 12 4f a0 0c d6 00 00 15 5c 00 00 1a 21 00 00 09 b4 00 00 aa 04
2025/9/30 14:00:00.049:Tag: 单相智能电表5(5) 等级:发送报文 信息:05 03 00 02 00 09 25 88
2025/9/30 14:00:00.053:Tag: 单相智能电表5(5) 等级:信息日志 信息: modbus-> sendDataToSocket ok skid: 11 ret:8 m_bufLen:8 

2025/9/30 14:00:00.210:Tag: 可控三项负载柜(1543484) 等级:接收报文 信息:05 51 00 00 00 47 01 03 44 43 44 35 46 43 48 89 81 43 4b 81 a9 43 ab cc 94 43 ae f5 25 43 ad 17 53 3f a8 88 d6 3f ad c4 f1 3f b2 71 de 3e 58 0b ed 3e 62 ce 46 3e 6d 51 9e 3f 2a 0a f5 3e 15 fa 61 3e 1f ee 17 3e 25 00 a6 3e ed 74 90

2025/9/30 14:00:00.215:Tag: 可控三项负载柜(1543484) 等级:发送报文 信息:05 52 00 00 00 06 01 03 00 96 00 22
2025/9/30 14:00:00.219:Tag: 可控三项负载柜(1543484) 等级:信息日志 信息: modbus-> sendDataToSocket ok skid: 10 ret:12 m_bufLen:12 

2025/9/30 14:00:00.377:Tag: 单相智能电表5(5) 等级:错误日志 信息: modbus readDataFromSocketE ok skid: 11 ret:23 expRxLen:23 

2025/9/30 14:00:00.381:Tag: 单相智能电表5(5) 等级:接收报文 信息:05 03 12 4e c1 0b b9 00 00 11 de 00 00 17 9a 00 00 0a 0b 00 00 57 3e
2025/9/30 14:00:00.385:Tag: 单相智能电表6(6) 等级:发送报文 信息:06 03 00 02 00 09 25 bb
2025/9/30 14:00:00.389:Tag: 单相智能电表6(6) 等级:信息日志 信息: modbus-> sendDataToSocket ok skid: 11 ret:8 m_bufLen:8 

2025/9/30 14:00:00.697:Tag: 单相智能电表6(6) 等级:错误日志 信息: modbus readDataFromSocketE ok skid: 11 ret:23 expRxLen:23 

2025/9/30 14:00:00.701:Tag: 单相智能电表6(6) 等级:接收报文 信息:06 03 12 4f 54 0c 16 00 00 13 08 00 00 18 83 00 00 09 fc 00 00 d1 78
2025/9/30 14:00:00.705:Tag: 单相智能电表7(7) 等级:发送报文 信息:07 03 00 02 00 09 24 6a
2025/9/30 14:00:00.709:Tag: 单相智能电表7(7) 等级:信息日志 信息: modbus-> sendDataToSocket ok skid: 11 ret:8 m_bufLen:8 


2025/9/30 14:00:01.021:Tag: 单相智能电表7(7) 等级:错误日志 信息: modbus readDataFromSocketE ok skid: 11 ret:23 expRxLen:23 

2025/9/30 14:00:01.024:Tag: 单相智能电表7(7) 等级:接收报文 信息:07 03 12 4a df 02 df 00 00 05 75 00 00 05 7e 00 00 00 61 00 00 6c 3e
2025/9/30 14:00:01.028:Tag: 单相智能电表8(8) 等级:发送报文 信息:08 03 00 02 00 09 24 95
2025/9/30 14:00:01.031:Tag: 单相智能电表8(8) 等级:信息日志 信息: modbus-> sendDataToSocket ok skid: 11 ret:8 m_bufLen:8 

2025/9/30 14:00:01.290:Tag: 单相智能电表8(8) 等级:错误日志 信息: modbus readDataFromSocketE ok skid: 11 ret:23 expRxLen:23 

2025/9/30 14:00:01.294:Tag: 单相智能电表8(8) 等级:接收报文 信息:08 03 12 4b 26 07 8b 00 00 09 21 00 00 0e 7d 00 00 07 99 00 00 31 27
2025/9/30 14:00:01.298:Tag: 单相智能电表9(9) 等级:发送报文 信息:09 03 00 02 00 09 25 44
2025/9/30 14:00:01.302:Tag: 单相智能电表9(9) 等级:信息日志 信息: modbus-> sendDataToSocket ok skid: 11 ret:8 m_bufLen:8 

2025/9/30 14:00:01.611:Tag: 单相智能电表9(9) 等级:错误日志 信息: modbus readDataFromSocketE ok skid: 11 ret:23 expRxLen:23 

2025/9/30 14:00:01.615:Tag: 单相智能电表9(9) 等级:接收报文 信息:09 03 12 46 93 0c d0 00 00 0d 7b 00 00 17 1e 00 00 0c fe 00 00 79 6e

2025/9/30 14:00:01.619:Tag: 可控调压4(24) 等级:发送控制命令报文 信息:18 06 00 01 00 47 9a 31
2025/9/30 14:00:01.930:Tag: 可控调压4(24) 等级:接收控制命令报文返回 信息:18 06 00 01 00 47 9a 31
2025/9/30 14:00:01.934:Tag: 三相智能电表1（线路阻抗柜端口2）(51) 等级:发送报文 信息:33 03 00 0a 00 22 e1 c3
2025/9/30 14:00:01.938:Tag: 三相智能电表1（线路阻抗柜端口2）(51) 等级:信息日志 信息: modbus-> sendDataToSocket ok skid: 11 ret:8 m_bufLen:8 

2025/9/30 14:00:02.247:Tag: 线路阻抗模拟柜(1543468) 等级:接收报文 信息:05 4f 00 00 00 af 01 03 ac 43 59 2e 31 43 59 46 0a 43 59 c3 e5 43 bc 1f c6 43 bc 60 9b 43 bc 56 49 41 50 c4 49 41 5f cf 42 41 50 0d bb 40 0a 5c c5 40 1a 65 e3 40 15 75 a0 40 dd 1c 24 3f ea 4e 92 3f ec a5 42 3f cc e8 43 40 a8 f7 07 00 00 00 00 00 00 00 00 00 00 00 00 41 0b 41 97 3f 4b 3c c6 42 47 dc 2f 43 bc 60 9b 41 5f cf 42 40 1a 65 e3 43 35 b2 87 43 3a 06 e2 43 42 6c 0a 43 9f 3b a2 43 a4 c0 aa 43 a2 e5 42 3f 08 c2 db 3f 16 3f 17 3f 0b 63 8f 3d 86 8a 69 3d 92 8b 47 3d 85 ec 9e 3e 4f 81 28 3d 92 58 e8 3d a8 e1 f9 3d aa 7d ea 3e 72 dc 66
2025/9/30 14:00:02.253:Tag: 线路阻抗模拟柜(1543468) 等级:发送报文 信息:05 50 00 00 00 06 01 03 00 87 00 56

2025/9/30 14:00:02.258:Tag: 线路阻抗模拟柜(1543468) 等级:信息日志 信息: modbus-> sendDataToSocket ok skid: 12 ret:12 m_bufLen:12 

2025/9/30 14:00:02.262:Tag: 三相智能电表1（线路阻抗柜端口2）(51) 等级:错误日志 信息: modbus readDataFromSocketE ok skid: 11 ret:73 expRxLen:73 

2025/9/30 14:00:02.267:Tag: 三相智能电表1（线路阻抗柜端口2）(51) 等级:接收报文 信息:33 03 44 43 4c 94 fa 43 4d 75 da 43 4e 4f 24 43 b1 8d bc 43 b2 4d 32 43 b1 eb ed 40 fd 7d 69 40 a0 33 8f 40 3a f1 d1 44 92 e0 da 44 59 72 20 44 07 18 d4 45 21 93 2a 44 7f 41 76 43 f9 bd 21 43 7c a0 be 44 dd a4 1c e6 4e
2025/9/30 14:00:02.272:Tag: 三相智能电表2（线路阻抗柜端口4）(52) 等级:发送报文 信息:34 03 00 0a 00 22 e0 74
2025/9/30 14:00:02.277:Tag: 三相智能电表2（线路阻抗柜端口4）(52) 等级:信息日志 信息: modbus-> sendDataToSocket ok skid: 11 ret:8 m_bufLen:8 

2025/9/30 14:00:02.547:Tag: 三相智能电表2（线路阻抗柜端口4）(52) 等级:错误日志 信息: modbus readDataFromSocketE ok skid: 11 ret:73 expRxLen:73 

2025/9/30 14:00:02.552:Tag: 三相智能电表2（线路阻抗柜端口4）(52) 等级:接收报文 信息:34 03 44 43 3c 3f 83 43 44 e2 ef 43 4a 08 be 43 a6 c8 3a 43 ac be 14 43 a9 08 46 40 bf 6b a1 40 3d 54 2d 3f 07 7b 56 44 38 af 59 43 e3 c9 8c 42 83 b8 92 44 9d 85 98 44 3b a1 80 43 8c 44 7c 42 64 e0 97 44 88 08 e4 68 90

2025/9/30 14:00:02.558:Tag: 三相智能电表3（线路阻抗柜端口5）(53) 等级:发送报文 信息:35 03 00 0a 00 22 e1 a5
2025/9/30 14:00:02.563:Tag: 三相智能电表3（线路阻抗柜端口5）(53) 等级:信息日志 信息: modbus-> sendDataToSocket ok skid: 11 ret:8 m_bufLen:8 

2025/9/30 14:00:02.873:Tag: 三相智能电表3（线路阻抗柜端口5）(53) 等级:错误日志 信息: modbus readDataFromSocketE ok skid: 11 ret:73 expRxLen:73 

2025/9/30 14:00:02.878:Tag: 三相智能电表3（线路阻抗柜端口5）(53) 等级:接收报文 信息:35 03 44 43 35 7f f0 43 41 b7 2b 43 49 70 04 43 a2 80 6e 43 ab 1e 00 43 a5 e4 41 40 31 f8 ae 3f 96 bb 34 3f 09 63 ab 43 ab 4e ec 43 56 ba 1a 42 84 bc fc 44 1b ed 9c 43 9a 7d bd 42 82 66 4a 42 68 70 49 43 d8 25 59 3c 81
2025/9/30 14:00:02.883:Tag: 三相智能电表4（线路阻抗柜端口7）(54) 等级:发送报文 信息:36 03 00 0a 00 22 e1 96
2025/9/30 14:00:02.888:Tag: 三相智能电表4（线路阻抗柜端口7）(54) 等级:信息日志 信息: modbus-> sendDataToSocket ok skid: 11 ret:8 m_bufLen:8 

2025/9/30 14:00:03.197:Tag: 三相智能电表4（线路阻抗柜端口7）(54) 等级:错误日志 信息: modbus readDataFromSocketE ok skid: 11 ret:73 expRxLen:73 

2025/9/30 14:00:03.202:Tag: 三相智能电表4（线路阻抗柜端口7）(54) 等级:接收报文 信息:36 03 44 43 32 41 07 43 40 82 03 43 48 e5 a3 43 a0 95 8a 43 aa 5c ba 43 a4 46 58 40 26 97 e0 3f 0e a8 5e 3f 0a 02 53 c3 a0 88 0c c2 90 ed e8 c2 80 a2 74 c3 e4 ec 24 c3 87 b6 75 c2 65 68 66 c2 70 cc 7c c3 c2 7d 11 e4 44

2025/9/30 14:00:03.209:Tag: 三相智能电表5(55) 等级:发送报文 信息:37 03 00 00 00 22 c0 45
2025/9/30 14:00:03.213:Tag: 三相智能电表5(55) 等级:信息日志 信息: modbus-> sendDataToSocket ok skid: 11 ret:8 m_bufLen:8 

2025/9/30 14:00:03.473:Tag: 三相智能电表5(55) 等级:错误日志 信息: modbus readDataFromSocketE ok skid: 11 ret:73 expRxLen:73 

2025/9/30 14:00:03.477:Tag: 三相智能电表5(55) 等级:接收报文 信息:37 03 44 80 00 43 3a 4c cd 43 44 99 9a 43 48 4c cd 43 a5 40 00 43 ab b3 33 43 a8 31 27 40 28 f7 cf 40 53 39 58 40 34 78 6c 3e fa 4c 30 3f 26 62 4e 3f 10 0f 91 3f da 60 42 3c e5 b5 dd 3d 04 2d e0 3d 10 9b a6 3d c4 7e be
2025/9/30 14:00:03.482:Tag: 三相智能电表6(56) 等级:发送报文 信息:38 03 00 00 00 22 c0 ba
2025/9/30 14:00:03.486:Tag: 三相智能电表6(56) 等级:信息日志 信息: modbus-> sendDataToSocket ok skid: 11 ret:8 m_bufLen:8 

2025/9/30 14:00:03.797:Tag: 三相智能电表6(56) 等级:错误日志 信息: modbus readDataFromSocketE ok skid: 11 ret:73 expRxLen:73 

2025/9/30 14:00:03.801:Tag: 三相智能电表6(56) 等级:接收报文 信息:38 03 44 00 00 00 00 00 00 00 00 00 00 00 00 00 00 00 00 00 00 00 00 00 00 00 00 00 00 00 00 00 00 00 00 00 00 00 00 00 00 00 00 00 00 00 00 00 00 00 00 00 00 00 00 00 00 00 00 00 00 00 00 00 00 00 00 00 00 00 00 aa a2

2025/9/30 14:00:03.807:Tag: 单相智能电表1(1) 等级:发送报文 信息:01 03 00 02 00 09 24 0c
2025/9/30 14:00:03.811:Tag: 单相智能电表1(1) 等级:信息日志 信息: modbus-> sendDataToSocket ok skid: 11 ret:8 m_bufLen:8 

2025/9/30 14:00:04.121:Tag: 单相智能电表1(1) 等级:错误日志 信息: modbus readDataFromSocketE ok skid: 11 ret:23 expRxLen:23 

2025/9/30 14:00:04.125:Tag: 单相智能电表1(1) 等级:接收报文 信息:01 03 12 4e 52 03 d6 00 00 07 b7 00 00 07 ae 00 00 00 02 00 00 18 f2
2025/9/30 14:00:04.129:Tag: 单相智能电表2(2) 等级:发送报文 信息:02 03 00 02 00 09 24 3f
2025/9/30 14:00:04.133:Tag: 单相智能电表2(2) 等级:信息日志 信息: modbus-> sendDataToSocket ok skid: 11 ret:8 m_bufLen:8 

2025/9/30 14:00:04.394:Tag: 单相智能电表2(2) 等级:错误日志 信息: modbus readDataFromSocketE ok skid: 11 ret:23 expRxLen:23 

2025/9/30 14:00:04.398:Tag: 单相智能电表2(2) 等级:接收报文 信息:02 03 12 4e 1d 12 09 00 00 1a f0 00 00 24 06 00 00 0f cb 00 00 a7 96
2025/9/30 14:00:04.402:Tag: 单相智能电表3(3) 等级:发送报文 信息:03 03 00 02 00 09 25 ee
2025/9/30 14:00:04.406:Tag: 单相智能电表3(3) 等级:信息日志 信息: modbus-> sendDataToSocket ok skid: 11 ret:8 m_bufLen:8 


2025/9/30 14:00:04.716:Tag: 单相智能电表3(3) 等级:错误日志 信息: modbus readDataFromSocketE ok skid: 11 ret:23 expRxLen:23 

2025/9/30 14:00:04.720:Tag: 单相智能电表3(3) 等级:接收报文 信息:03 03 12 4e a6 07 d0 00 00 05 0f 00 00 0f b5 00 00 09 1c 00 00 f5 7b
2025/9/30 14:00:04.724:Tag: 单相智能电表4(4) 等级:发送报文 信息:04 03 00 02 00 09 24 59
2025/9/30 14:00:04.730:Tag: 单相智能电表4(4) 等级:信息日志 信息: modbus-> sendDataToSocket ok skid: 11 ret:8 m_bufLen:8 

2025/9/30 14:00:05.039:Tag: 单相智能电表4(4) 等级:错误日志 信息: modbus readDataFromSocketE ok skid: 11 ret:23 expRxLen:23 

2025/9/30 14:00:05.043:Tag: 单相智能电表4(4) 等级:接收报文 信息:04 03 12 4f b1 0c d6 00 00 15 5b 00 00 1a 26 00 00 09 bb 00 00 aa e6
2025/9/30 14:00:05.047:Tag: 单相智能电表5(5) 等级:发送报文 信息:05 03 00 02 00 09 25 88
2025/9/30 14:00:05.051:Tag: 单相智能电表5(5) 等级:信息日志 信息: modbus-> sendDataToSocket ok skid: 11 ret:8 m_bufLen:8 

2025/9/30 14:00:05.259:Tag: 可控三项负载柜(1543484) 等级:接收报文 信息:05 52 00 00 00 47 01 03 44 43 44 54 3a 43 48 bc 3f 43 4b 80 75 43 ab ef fc 43 af 0a 8a 43 ad 24 20 3f a8 dc 50 3f ad e9 99 3f b2 6a 14 3e 58 6d 7e 3e 62 ea ed 3e 6c e5 e1 3f 2a 0f 94 3e 16 19 e9 3e 20 31 62 3e 26 06 03 3e ee 28 a7

2025/9/30 14:00:05.264:Tag: 可控三项负载柜(1543484) 等级:发送报文 信息:05 53 00 00 00 06 01 03 00 96 00 22
2025/9/30 14:00:05.268:Tag: 可控三项负载柜(1543484) 等级:信息日志 信息: modbus-> sendDataToSocket ok skid: 10 ret:12 m_bufLen:12 

2025/9/30 14:00:05.323:Tag: 单相智能电表5(5) 等级:错误日志 信息: modbus readDataFromSocketE ok skid: 11 ret:23 expRxLen:23 

2025/9/30 14:00:05.327:Tag: 单相智能电表5(5) 等级:接收报文 信息:05 03 12 4e d8 0b bc 00 00 11 e6 00 00 17 a7 00 00 0a 12 00 00 a1 ce
2025/9/30 14:00:05.331:Tag: 单相智能电表6(6) 等级:发送报文 信息:06 03 00 02 00 09 25 bb
2025/9/30 14:00:05.335:Tag: 单相智能电表6(6) 等级:信息日志 信息: modbus-> sendDataToSocket ok skid: 11 ret:8 m_bufLen:8 

2025/9/30 14:00:05.646:Tag: 单相智能电表6(6) 等级:错误日志 信息: modbus readDataFromSocketE ok skid: 11 ret:23 expRxLen:23 

2025/9/30 14:00:05.650:Tag: 单相智能电表6(6) 等级:接收报文 信息:06 03 12 4f 38 0c 0c 00 00 12 e9 00 00 18 67 00 00 09 fb 00 00 1d 5d
2025/9/30 14:00:05.654:Tag: 单相智能电表7(7) 等级:发送报文 信息:07 03 00 02 00 09 24 6a
2025/9/30 14:00:05.659:Tag: 单相智能电表7(7) 等级:信息日志 信息: modbus-> sendDataToSocket ok skid: 11 ret:8 m_bufLen:8 


2025/9/30 14:00:05.969:Tag: 单相智能电表7(7) 等级:错误日志 信息: modbus readDataFromSocketE ok skid: 11 ret:23 expRxLen:23 

2025/9/30 14:00:05.973:Tag: 单相智能电表7(7) 等级:接收报文 信息:07 03 12 4a fb 02 de 00 00 05 76 00 00 05 7f 00 00 00 60 00 00 b8 71
2025/9/30 14:00:05.977:Tag: 单相智能电表8(8) 等级:发送报文 信息:08 03 00 02 00 09 24 95
2025/9/30 14:00:05.981:Tag: 单相智能电表8(8) 等级:信息日志 信息: modbus-> sendDataToSocket ok skid: 11 ret:8 m_bufLen:8 

2025/9/30 14:00:06.291:Tag: 单相智能电表8(8) 等级:错误日志 信息: modbus readDataFromSocketE ok skid: 11 ret:23 expRxLen:23 

2025/9/30 14:00:06.295:Tag: 单相智能电表8(8) 等级:接收报文 信息:08 03 12 4b 42 07 8e 00 00 09 28 00 00 0e 88 00 00 07 9f 00 00 f5 69
2025/9/30 14:00:06.299:Tag: 单相智能电表9(9) 等级:发送报文 信息:09 03 00 02 00 09 25 44
2025/9/30 14:00:06.303:Tag: 单相智能电表9(9) 等级:信息日志 信息: modbus-> sendDataToSocket ok skid: 11 ret:8 m_bufLen:8 

2025/9/30 14:00:06.562:Tag: 单相智能电表9(9) 等级:错误日志 信息: modbus readDataFromSocketE ok skid: 11 ret:23 expRxLen:23 

2025/9/30 14:00:06.566:Tag: 单相智能电表9(9) 等级:接收报文 信息:09 03 12 46 46 0e 00 00 00 10 0f 00 00 19 25 00 00 0d 30 00 00 9e 6a

2025/9/30 14:00:06.571:Tag: 可控调压5(25) 等级:发送控制命令报文 信息:19 06 00 01 00 47 9b e0
2025/9/30 14:00:06.881:Tag: 可控调压5(25) 等级:接收控制命令报文返回 信息:19 06 00 01 00 47 9b e0
2025/9/30 14:00:06.885:Tag: 可控调压6(26) 等级:发送控制命令报文 信息:1a 06 00 01 00 46 5a 13
2025/9/30 14:00:07.196:Tag: 可控调压6(26) 等级:接收控制命令报文返回 信息:1a 06 00 01 00 46 5a 13
2025/9/30 14:00:07.201:Tag: 三相智能电表1（线路阻抗柜端口2）(51) 等级:发送报文 信息:33 03 00 0a 00 22 e1 c3
2025/9/30 14:00:07.205:Tag: 三相智能电表1（线路阻抗柜端口2）(51) 等级:信息日志 信息: modbus-> sendDataToSocket ok skid: 11 ret:8 m_bufLen:8 

2025/9/30 14:00:07.261:Tag: 线路阻抗模拟柜(1543468) 等级:接收报文 信息:05 50 00 00 00 af 01 03 ac 43 59 00 f1 43 59 2c 1a 43 59 90 39 43 bc 00 f2 43 bc 3e ff 43 bc 2c 50 41 50 86 08 41 5f 40 67 41 4f c0 e2 40 0a 16 32 40 1a 01 c5 40 15 1a 91 40 dc 99 43 3f ea 0a 18 3f eb bc fa 3f cc 82 77 40 a8 92 63 00 00 00 00 00 00 00 00 00 00 00 00 41 0a ef 19 3f 4b 3c df 42 47 e1 4d 43 bc 3e ff 41 5f 40 67 40 1a 01 c5 43 35 8d 1c 43 39 ec 42 43 42 4b 70 43 9f 1f ec 43 a4 a7 00 43 a2 c6 f8 3f 08 6f 64 3f 15 db 8c 3f 0b a2 01 3d 86 fb 8e 3d 91 3d 77 3d 86 ce fc 3e 4f 84 01 3d 91 13 63 3d a9 14 4a 3d aa 18 a2 3e 72 20 28

2025/9/30 14:00:07.268:Tag: 线路阻抗模拟柜(1543468) 等级:发送报文 信息:05 51 00 00 00 06 01 03 00 87 00 56
2025/9/30 14:00:07.273:Tag: 线路阻抗模拟柜(1543468) 等级:信息日志 信息: modbus-> sendDataToSocket ok skid: 12 ret:12 m_bufLen:12 

2025/9/30 14:00:07.532:Tag: 三相智能电表1（线路阻抗柜端口2）(51) 等级:错误日志 信息: modbus readDataFromSocketE ok skid: 11 ret:73 expRxLen:73 

2025/9/30 14:00:07.536:Tag: 三相智能电表1（线路阻抗柜端口2）(51) 等级:接收报文 信息:33 03 44 43 4c 54 85 43 4d ad 6d 43 4e a6 15 43 b1 89 f0 43 b2 8a eb 43 b1 f5 c4 41 05 43 c1 40 a0 97 ab 40 3b 6b 4c 44 9c 74 b5 44 5a 82 c2 44 07 b5 b7 45 26 c8 78 44 83 37 c2 43 fa 7b bc 43 7c b7 7e 44 e1 6d a1 0a 5c
2025/9/30 14:00:07.540:Tag: 三相智能电表2（线路阻抗柜端口4）(52) 等级:发送报文 信息:34 03 00 0a 00 22 e0 74
2025/9/30 14:00:07.544:Tag: 三相智能电表2（线路阻抗柜端口4）(52) 等级:信息日志 信息: modbus-> sendDataToSocket ok skid: 11 ret:8 m_bufLen:8 

2025/9/30 14:00:07.852:Tag: 三相智能电表2（线路阻抗柜端口4）(52) 等级:错误日志 信息: modbus readDataFromSocketE ok skid: 11 ret:73 expRxLen:73 

2025/9/30 14:00:07.857:Tag: 三相智能电表2（线路阻抗柜端口4）(52) 等级:接收报文 信息:34 03 44 43 3b a9 56 43 44 f7 2e 43 4a 29 02 43 a6 90 8b 43 ac d4 d6 43 a8 d6 2e 40 cb a6 f8 40 3d b6 62 3f 07 eb 1c 44 49 45 44 43 e4 a9 53 42 84 6e 30 44 a6 13 da 44 3e 9f ca 43 8c 94 9e 42 66 f4 fa 44 89 ac b4 a3 64

2025/9/30 14:00:07.862:Tag: 三相智能电表3（线路阻抗柜端口5）(53) 等级:发送报文 信息:35 03 00 0a 00 22 e1 a5
2025/9/30 14:00:07.866:Tag: 三相智能电表3（线路阻抗柜端口5）(53) 等级:信息日志 信息: modbus-> sendDataToSocket ok skid: 11 ret:8 m_bufLen:8 

2025/9/30 14:00:08.125:Tag: 三相智能电表3（线路阻抗柜端口5）(53) 等级:错误日志 信息: modbus readDataFromSocketE ok skid: 11 ret:73 expRxLen:73 

2025/9/30 14:00:08.130:Tag: 三相智能电表3（线路阻抗柜端口5）(53) 等级:接收报文 信息:35 03 44 43 35 68 ac 43 40 ec b6 43 49 9e 75 43 a2 1d e2 43 aa db 32 43 a5 ee d0 40 32 02 bf 3f 96 e3 b1 3f 09 57 a7 43 ab 58 2d 43 56 cd 7e 42 84 b2 14 44 1b f5 b8 43 9b a9 d6 42 81 e8 c2 42 67 1a 8a 43 d9 07 58 20 12
2025/9/30 14:00:08.135:Tag: 三相智能电表4（线路阻抗柜端口7）(54) 等级:发送报文 信息:36 03 00 0a 00 22 e1 96
2025/9/30 14:00:08.139:Tag: 三相智能电表4（线路阻抗柜端口7）(54) 等级:信息日志 信息: modbus-> sendDataToSocket ok skid: 11 ret:8 m_bufLen:8 

2025/9/30 14:00:08.450:Tag: 三相智能电表4（线路阻抗柜端口7）(54) 等级:错误日志 信息: modbus readDataFromSocketE ok skid: 11 ret:73 expRxLen:73 

2025/9/30 14:00:08.454:Tag: 三相智能电表4（线路阻抗柜端口7）(54) 等级:接收报文 信息:36 03 44 43 32 58 04 43 3f 6b 13 43 49 1b 81 43 a0 25 22 43 a9 fc 62 43 a4 67 de 40 26 b1 a0 3f 0f 7f 7f 3f 09 ef b8 c3 a0 90 fe c2 92 69 f2 c2 80 b6 4e c3 e5 59 0f c3 88 50 06 c2 63 97 93 c2 71 a9 04 c3 c2 f8 18 08 78

2025/9/30 14:00:08.459:Tag: 三相智能电表5(55) 等级:发送报文 信息:37 03 00 00 00 22 c0 45
2025/9/30 14:00:08.462:Tag: 三相智能电表5(55) 等级:信息日志 信息: modbus-> sendDataToSocket ok skid: 11 ret:8 m_bufLen:8 

2025/9/30 14:00:08.772:Tag: 三相智能电表5(55) 等级:错误日志 信息: modbus readDataFromSocketE ok skid: 11 ret:73 expRxLen:73 

2025/9/30 14:00:08.776:Tag: 三相智能电表5(55) 等级:接收报文 信息:37 03 44 80 00 43 3a 99 9a 43 43 99 9a 43 48 26 66 43 a5 c0 00 43 aa c0 00 43 a8 31 27 40 28 33 33 40 53 39 58 40 34 78 6c 3e fa 46 0b 3f 25 7c 85 3f 10 8c 7e 3f d9 60 42 3c e5 12 6f 3d 03 8a 72 3d 0e f8 38 3d c2 96 5b
2025/9/30 14:00:08.780:Tag: 三相智能电表6(56) 等级:发送报文 信息:38 03 00 00 00 22 c0 ba
2025/9/30 14:00:08.784:Tag: 三相智能电表6(56) 等级:信息日志 信息: modbus-> sendDataToSocket ok skid: 11 ret:8 m_bufLen:8 

2025/9/30 14:00:09.094:Tag: 三相智能电表6(56) 等级:错误日志 信息: modbus readDataFromSocketE ok skid: 11 ret:73 expRxLen:73 

2025/9/30 14:00:09.099:Tag: 三相智能电表6(56) 等级:接收报文 信息:38 03 44 00 00 00 00 00 00 00 00 00 00 00 00 00 00 00 00 00 00 00 00 00 00 00 00 00 00 00 00 00 00 00 00 00 00 00 00 00 00 00 00 00 00 00 00 00 00 00 00 00 00 00 00 00 00 00 00 00 00 00 00 00 00 00 00 00 00 00 00 aa a2

2025/9/30 14:00:09.104:Tag: 单相智能电表1(1) 等级:发送报文 信息:01 03 00 02 00 09 24 0c
2025/9/30 14:00:09.108:Tag: 单相智能电表1(1) 等级:信息日志 信息: modbus-> sendDataToSocket ok skid: 11 ret:8 m_bufLen:8 

2025/9/30 14:00:09.417:Tag: 单相智能电表1(1) 等级:错误日志 信息: modbus readDataFromSocketE ok skid: 11 ret:23 expRxLen:23 

2025/9/30 14:00:09.421:Tag: 单相智能电表1(1) 等级:接收报文 信息:01 03 12 4e 50 03 d6 00 00 07 b7 00 00 07 ae 00 00 00 02 00 00 b9 92
2025/9/30 14:00:09.425:Tag: 单相智能电表2(2) 等级:发送报文 信息:02 03 00 02 00 09 24 3f
2025/9/30 14:00:09.429:Tag: 单相智能电表2(2) 等级:信息日志 信息: modbus-> sendDataToSocket ok skid: 11 ret:8 m_bufLen:8 

2025/9/30 14:00:09.688:Tag: 单相智能电表2(2) 等级:错误日志 信息: modbus readDataFromSocketE ok skid: 11 ret:23 expRxLen:23 

2025/9/30 14:00:09.692:Tag: 单相智能电表2(2) 等级:接收报文 信息:02 03 12 4e 23 12 0a 00 00 1a f4 00 00 24 0a 00 00 0f ce 00 00 5d ca
2025/9/30 14:00:09.697:Tag: 单相智能电表3(3) 等级:发送报文 信息:03 03 00 02 00 09 25 ee
2025/9/30 14:00:09.701:Tag: 单相智能电表3(3) 等级:信息日志 信息: modbus-> sendDataToSocket ok skid: 11 ret:8 m_bufLen:8 


2025/9/30 14:00:10.012:Tag: 单相智能电表3(3) 等级:错误日志 信息: modbus readDataFromSocketE ok skid: 11 ret:23 expRxLen:23 

2025/9/30 14:00:10.016:Tag: 单相智能电表3(3) 等级:接收报文 信息:03 03 12 4e 9d 07 cb 00 00 05 09 00 00 0f aa 00 00 09 12 00 00 5c c7
2025/9/30 14:00:10.020:Tag: 单相智能电表4(4) 等级:发送报文 信息:04 03 00 02 00 09 24 59
2025/9/30 14:00:10.024:Tag: 单相智能电表4(4) 等级:信息日志 信息: modbus-> sendDataToSocket ok skid: 11 ret:8 m_bufLen:8 

2025/9/30 14:00:10.232:Tag: 可控三项负载柜(1543484) 等级:接收报文 信息:05 53 00 00 00 47 01 03 44 43 43 be eb 43 48 b1 cc 43 4b b2 22 43 ab ab 0b 43 af 1b 96 43 ac f9 86 3f a8 91 f1 3f ad cd f0 3f b3 0f cf 3e 58 8a 2f 3e 63 95 7e 3e 6d 85 4d 3f 2a 69 3e 3e 14 a3 b5 3e 20 69 5c 3e 26 4e 7c 3e ed ad c5
2025/9/30 14:00:10.237:Tag: 可控三项负载柜(1543484) 等级:发送报文 信息:05 54 00 00 00 06 01 03 00 96 00 22
2025/9/30 14:00:10.241:Tag: 可控三项负载柜(1543484) 等级:信息日志 信息: modbus-> sendDataToSocket ok skid: 10 ret:12 m_bufLen:12 

2025/9/30 14:00:10.347:Tag: 单相智能电表4(4) 等级:错误日志 信息: modbus readDataFromSocketE ok skid: 11 ret:23 expRxLen:23 


2025/9/30 14:00:10.351:Tag: 单相智能电表4(4) 等级:接收报文 信息:04 03 12 4f b8 0c d9 00 00 15 65 00 00 1a 2f 00 00 09 bc 00 00 d0 99
2025/9/30 14:00:10.355:Tag: 单相智能电表5(5) 等级:发送报文 信息:05 03 00 02 00 09 25 88
2025/9/30 14:00:10.358:Tag: 单相智能电表5(5) 等级:信息日志 信息: modbus-> sendDataToSocket ok skid: 11 ret:8 m_bufLen:8 

2025/9/30 14:00:10.617:Tag: 单相智能电表5(5) 等级:错误日志 信息: modbus readDataFromSocketE ok skid: 11 ret:23 expRxLen:23 

2025/9/30 14:00:10.621:Tag: 单相智能电表5(5) 等级:接收报文 信息:05 03 12 4e c2 0b b7 00 00 11 d6 00 00 17 96 00 00 0a 0e 00 00 df ab
2025/9/30 14:00:10.625:Tag: 单相智能电表6(6) 等级:发送报文 信息:06 03 00 02 00 09 25 bb
2025/9/30 14:00:10.630:Tag: 单相智能电表6(6) 等级:信息日志 信息: modbus-> sendDataToSocket ok skid: 11 ret:8 m_bufLen:8 

2025/9/30 14:00:10.939:Tag: 单相智能电表6(6) 等级:错误日志 信息: modbus readDataFromSocketE ok skid: 11 ret:23 expRxLen:23 

2025/9/30 14:00:10.943:Tag: 单相智能电表6(6) 等级:接收报文 信息:06 03 12 4f 33 0c 0a 00 00 12 e3 00 00 18 61 00 00 09 fb 00 00 ab b5
2025/9/30 14:00:10.947:Tag: 单相智能电表7(7) 等级:发送报文 信息:07 03 00 02 00 09 24 6a

2025/9/30 14:00:10.952:Tag: 单相智能电表7(7) 等级:信息日志 信息: modbus-> sendDataToSocket ok skid: 11 ret:8 m_bufLen:8 

2025/9/30 14:00:11.261:Tag: 单相智能电表7(7) 等级:错误日志 信息: modbus readDataFromSocketE ok skid: 11 ret:23 expRxLen:23 

2025/9/30 14:00:11.266:Tag: 单相智能电表7(7) 等级:接收报文 信息:07 03 12 4a 80 02 db 00 00 05 6a 00 00 05 71 00 00 00 60 00 00 ab cb
2025/9/30 14:00:11.270:Tag: 单相智能电表8(8) 等级:发送报文 信息:08 03 00 02 00 09 24 95
2025/9/30 14:00:11.274:Tag: 单相智能电表8(8) 等级:信息日志 信息: modbus-> sendDataToSocket ok skid: 11 ret:8 m_bufLen:8 

2025/9/30 14:00:11.584:Tag: 单相智能电表8(8) 等级:错误日志 信息: modbus readDataFromSocketE ok skid: 11 ret:23 expRxLen:23 

2025/9/30 14:00:11.588:Tag: 单相智能电表8(8) 等级:接收报文 信息:08 03 12 4a bf 08 20 00 00 0a 95 00 00 0f 85 00 00 07 a7 00 00 ea 16
2025/9/30 14:00:11.592:Tag: 单相智能电表9(9) 等级:发送报文 信息:09 03 00 02 00 09 25 44
2025/9/30 14:00:11.596:Tag: 单相智能电表9(9) 等级:信息日志 信息: modbus-> sendDataToSocket ok skid: 11 ret:8 m_bufLen:8 

2025/9/30 14:00:11.906:Tag: 单相智能电表9(9) 等级:错误日志 信息: modbus readDataFromSocketE ok skid: 11 ret:23 expRxLen:23 


2025/9/30 14:00:11.911:Tag: 单相智能电表9(9) 等级:接收报文 信息:09 03 12 46 44 0d fc 00 00 10 06 00 00 19 1e 00 00 0d 2d 00 00 b7 e3
2025/9/30 14:00:11.915:Tag: 三相智能电表1（线路阻抗柜端口2）(51) 等级:发送报文 信息:33 03 00 0a 00 22 e1 c3
2025/9/30 14:00:11.919:Tag: 三相智能电表1（线路阻抗柜端口2）(51) 等级:信息日志 信息: modbus-> sendDataToSocket ok skid: 11 ret:8 m_bufLen:8 

2025/9/30 14:00:12.177:Tag: 三相智能电表1（线路阻抗柜端口2）(51) 等级:错误日志 信息: modbus readDataFromSocketE ok skid: 11 ret:73 expRxLen:73 

2025/9/30 14:00:12.182:Tag: 三相智能电表1（线路阻抗柜端口2）(51) 等级:接收报文 信息:33 03 44 43 4c 21 03 43 4d 6f a1 43 4e ac d5 43 b1 58 df 43 b2 73 1c 43 b1 e2 70 41 05 ea 30 40 a5 da cb 40 3b 68 fe 44 9d 84 d5 44 63 a7 3a 44 07 a8 7f 45 29 96 58 44 83 5b b9 43 fc d5 20 43 7d a3 85 44 e2 45 72 64 0b
2025/9/30 14:00:12.187:Tag: 三相智能电表2（线路阻抗柜端口4）(52) 等级:发送报文 信息:34 03 00 0a 00 22 e0 74
2025/9/30 14:00:12.192:Tag: 三相智能电表2（线路阻抗柜端口4）(52) 等级:信息日志 信息: modbus-> sendDataToSocket ok skid: 11 ret:8 m_bufLen:8 

2025/9/30 14:00:12.247:Tag: 线路阻抗模拟柜(1543468) 等级:接收报文 信息:05 51 00 00 00 af 01 03 ac 43 59 39 ed 43 59 99 77 43 59 e0 16 43 bc 48 fc 43 bc 90 ee 43 bc 67 93 41 57 b6 5f 41 5f dd 18 41 50 48 42 40 0f 5d 1e 40 1a 83 d5 40 15 ae c3 40 df c7 dc 3f f1 7a fa 3f ed 6b 01 3f cd 5e 2a 40 ab 11 09 00 00 00 00 00 00 00 00 00 00 00 00 41 0c f3 5a 3f 4b 38 3b 42 47 fa e2 43 bc 90 ee 41 5f dd 18 40 1a 83 d5 43 35 5d 67 43 39 cc 5d 43 42 fc 7f 43 9e fd 7c 43 a4 e6 8c 43 a3 00 1b 3f 0a 61 5e 3f 16 88 f7 3f 0b b9 cc 3d 86 81 e5 3d 91 8e 63 3d 86 21 9f 3e 4f 18 f3 3d 95 10 2b 3d a9 f0 19 3d ab cb e0 3e 75 66 13

2025/9/30 14:00:12.254:Tag: 线路阻抗模拟柜(1543468) 等级:发送报文 信息:05 52 00 00 00 06 01 03 00 87 00 56
2025/9/30 14:00:12.258:Tag: 线路阻抗模拟柜(1543468) 等级:信息日志 信息: modbus-> sendDataToSocket ok skid: 12 ret:12 m_bufLen:12 

2025/9/30 14:00:12.515:Tag: 三相智能电表2（线路阻抗柜端口4）(52) 等级:错误日志 信息: modbus readDataFromSocketE ok skid: 11 ret:73 expRxLen:73 

2025/9/30 14:00:12.520:Tag: 三相智能电表2（线路阻抗柜端口4）(52) 等级:接收报文 信息:34 03 44 43 3b 79 e1 43 44 3a c7 43 4a 36 a2 43 a6 29 f2 43 ac 89 91 43 a8 c7 de 40 cc a7 58 40 47 7b f0 3f 07 e6 5f 44 4b 27 e0 43 f7 86 28 42 83 e7 63 44 ab b3 f0 44 3e cb 36 43 8b 53 0b 42 67 0b 44 44 89 72 b8 0d 9e
2025/9/30 14:00:12.525:Tag: 三相智能电表3（线路阻抗柜端口5）(53) 等级:发送报文 信息:35 03 00 0a 00 22 e1 a5
2025/9/30 14:00:12.529:Tag: 三相智能电表3（线路阻抗柜端口5）(53) 等级:信息日志 信息: modbus-> sendDataToSocket ok skid: 11 ret:8 m_bufLen:8 

2025/9/30 14:00:12.788:Tag: 三相智能电表3（线路阻抗柜端口5）(53) 等级:错误日志 信息: modbus readDataFromSocketE ok skid: 11 ret:73 expRxLen:73 

2025/9/30 14:00:12.793:Tag: 三相智能电表3（线路阻抗柜端口5）(53) 等级:接收报文 信息:35 03 44 43 35 35 ea 43 40 87 a4 43 49 ad e1 43 a1 db ee 43 aa b6 7e 43 a5 e0 06 40 32 b2 7d 3f 97 77 ac 3f 09 3c d2 43 ac a1 08 43 56 a1 b7 42 84 c5 d6 44 1c 91 ac 43 9c 18 be 42 82 ef a8 42 67 6a 47 43 d9 c1 f1 03 8c

2025/9/30 14:00:12.799:Tag: 三相智能电表4（线路阻抗柜端口7）(54) 等级:发送报文 信息:36 03 00 0a 00 22 e1 96
2025/9/30 14:00:12.803:Tag: 三相智能电表4（线路阻抗柜端口7）(54) 等级:信息日志 信息: modbus-> sendDataToSocket ok skid: 11 ret:8 m_bufLen:8 

2025/9/30 14:00:13.114:Tag: 三相智能电表4（线路阻抗柜端口7）(54) 等级:错误日志 信息: modbus readDataFromSocketE ok skid: 11 ret:73 expRxLen:73 

2025/9/30 14:00:13.119:Tag: 三相智能电表4（线路阻抗柜端口7）(54) 等级:接收报文 信息:36 03 44 43 32 8c 7b 43 3f 66 7f 43 49 08 7f 43 a0 39 92 43 a9 f2 1f 43 a4 75 bc 40 27 43 5c 3f 0f ca e3 3f 09 e3 77 c3 a1 61 39 c2 93 35 1a c2 80 b4 5c c3 e6 5b 98 c3 88 f7 de c2 63 97 81 c2 72 18 74 c3 c3 ad dc 23 72
2025/9/30 14:00:13.124:Tag: 三相智能电表5(55) 等级:发送报文 信息:37 03 00 00 00 22 c0 45
2025/9/30 14:00:13.128:Tag: 三相智能电表5(55) 等级:信息日志 信息: modbus-> sendDataToSocket ok skid: 11 ret:8 m_bufLen:8 

2025/9/30 14:00:13.438:Tag: 三相智能电表5(55) 等级:错误日志 信息: modbus readDataFromSocketE ok skid: 11 ret:73 expRxLen:73 

2025/9/30 14:00:13.443:Tag: 三相智能电表5(55) 等级:接收报文 信息:37 03 44 99 9a 43 3a b3 33 43 43 99 9a 43 48 40 00 43 a5 cc cd 43 aa c0 00 43 a8 ef 9e 40 27 33 33 40 53 39 58 40 34 78 6c 3e fa 46 0b 3f 25 7c 85 3f 10 7f 63 3f d9 60 42 3c e5 12 6f 3d 03 8a 72 3d 0e f8 38 3d c2 19 77

2025/9/30 14:00:13.448:Tag: 三相智能电表6(56) 等级:发送报文 信息:38 03 00 00 00 22 c0 ba
2025/9/30 14:00:13.453:Tag: 三相智能电表6(56) 等级:信息日志 信息: modbus-> sendDataToSocket ok skid: 11 ret:8 m_bufLen:8 

2025/9/30 14:00:13.711:Tag: 三相智能电表6(56) 等级:错误日志 信息: modbus readDataFromSocketE ok skid: 11 ret:73 expRxLen:73 

2025/9/30 14:00:13.715:Tag: 三相智能电表6(56) 等级:接收报文 信息:38 03 44 00 00 00 00 00 00 00 00 00 00 00 00 00 00 00 00 00 00 00 00 00 00 00 00 00 00 00 00 00 00 00 00 00 00 00 00 00 00 00 00 00 00 00 00 00 00 00 00 00 00 00 00 00 00 00 00 00 00 00 00 00 00 00 00 00 00 00 00 aa a2
2025/9/30 14:00:13.720:Tag: 单相智能电表1(1) 等级:发送报文 信息:01 03 00 02 00 09 24 0c
2025/9/30 14:00:13.724:Tag: 单相智能电表1(1) 等级:信息日志 信息: modbus-> sendDataToSocket ok skid: 11 ret:8 m_bufLen:8 

2025/9/30 14:00:14.034:Tag: 单相智能电表1(1) 等级:错误日志 信息: modbus readDataFromSocketE ok skid: 11 ret:23 expRxLen:23 

2025/9/30 14:00:14.038:Tag: 单相智能电表1(1) 等级:接收报文 信息:01 03 12 4e 4c 03 d6 00 00 07 b6 00 00 07 ad 00 00 00 01 00 00 b6 a8
2025/9/30 14:00:14.042:Tag: 单相智能电表2(2) 等级:发送报文 信息:02 03 00 02 00 09 24 3f

2025/9/30 14:00:14.047:Tag: 单相智能电表2(2) 等级:信息日志 信息: modbus-> sendDataToSocket ok skid: 11 ret:8 m_bufLen:8 

2025/9/30 14:00:14.357:Tag: 单相智能电表2(2) 等级:错误日志 信息: modbus readDataFromSocketE ok skid: 11 ret:23 expRxLen:23 

2025/9/30 14:00:14.361:Tag: 单相智能电表2(2) 等级:接收报文 信息:02 03 12 4e 25 12 09 00 00 1a f2 00 00 24 09 00 00 0f cf 00 00 81 22
2025/9/30 14:00:14.365:Tag: 单相智能电表3(3) 等级:发送报文 信息:03 03 00 02 00 09 25 ee
2025/9/30 14:00:14.369:Tag: 单相智能电表3(3) 等级:信息日志 信息: modbus-> sendDataToSocket ok skid: 11 ret:8 m_bufLen:8 

2025/9/30 14:00:14.679:Tag: 单相智能电表3(3) 等级:错误日志 信息: modbus readDataFromSocketE ok skid: 11 ret:23 expRxLen:23 

2025/9/30 14:00:14.683:Tag: 单相智能电表3(3) 等级:接收报文 信息:03 03 12 4e 9c 07 c5 00 00 05 02 00 00 0f 9e 00 00 09 0b 00 00 02 73
2025/9/30 14:00:14.687:Tag: 单相智能电表4(4) 等级:发送报文 信息:04 03 00 02 00 09 24 59
2025/9/30 14:00:14.691:Tag: 单相智能电表4(4) 等级:信息日志 信息: modbus-> sendDataToSocket ok skid: 11 ret:8 m_bufLen:8 

2025/9/30 14:00:15.003:Tag: 单相智能电表4(4) 等级:错误日志 信息: modbus readDataFromSocketE ok skid: 11 ret:23 expRxLen:23 


2025/9/30 14:00:15.007:Tag: 单相智能电表4(4) 等级:接收报文 信息:04 03 12 4f bb 0c d7 00 00 15 5c 00 00 1a 2b 00 00 09 bf 00 00 ca 31
2025/9/30 14:00:15.012:Tag: 单相智能电表5(5) 等级:发送报文 信息:05 03 00 02 00 09 25 88
2025/9/30 14:00:15.016:Tag: 单相智能电表5(5) 等级:信息日志 信息: modbus-> sendDataToSocket ok skid: 11 ret:8 m_bufLen:8 

2025/9/30 14:00:15.225:Tag: 可控三项负载柜(1543484) 等级:接收报文 信息:05 54 00 00 00 47 01 03 44 43 43 b0 3e 43 48 69 02 43 4b a9 1c 43 ab 85 12 43 ae f8 3c 43 ac ef 48 3f a8 82 fd 3f ad 43 84 3f b2 ba 56 3e 57 e1 3c 3e 62 6d e6 3e 6d a3 22 3f 29 fc 90 3e 15 16 bb 3e 1f 08 47 3e 25 bf 05 3e ec ef 03
2025/9/30 14:00:15.230:Tag: 可控三项负载柜(1543484) 等级:发送报文 信息:05 55 00 00 00 06 01 03 00 96 00 22
2025/9/30 14:00:15.234:Tag: 可控三项负载柜(1543484) 等级:信息日志 信息: modbus-> sendDataToSocket ok skid: 10 ret:12 m_bufLen:12 

2025/9/30 14:00:15.291:Tag: 单相智能电表5(5) 等级:错误日志 信息: modbus readDataFromSocketE ok skid: 11 ret:23 expRxLen:23 

2025/9/30 14:00:15.300:Tag: 单相智能电表5(5) 等级:接收报文 信息:05 03 12 4e c6 0b b6 00 00 11 d3 00 00 17 95 00 00 0a 0f 00 00 2f 66

2025/9/30 14:00:15.305:Tag: 单相智能电表6(6) 等级:发送报文 信息:06 03 00 02 00 09 25 bb
2025/9/30 14:00:15.309:Tag: 单相智能电表6(6) 等级:信息日志 信息: modbus-> sendDataToSocket ok skid: 11 ret:8 m_bufLen:8 

2025/9/30 14:00:15.619:Tag: 单相智能电表6(6) 等级:错误日志 信息: modbus readDataFromSocketE ok skid: 11 ret:23 expRxLen:23 

2025/9/30 14:00:15.623:Tag: 单相智能电表6(6) 等级:接收报文 信息:06 03 12 4f 41 0c 0b 00 00 12 e6 00 00 18 67 00 00 09 ff 00 00 d8 03
2025/9/30 14:00:15.627:Tag: 单相智能电表7(7) 等级:发送报文 信息:07 03 00 02 00 09 24 6a
2025/9/30 14:00:15.631:Tag: 单相智能电表7(7) 等级:信息日志 信息: modbus-> sendDataToSocket ok skid: 11 ret:8 m_bufLen:8 

2025/9/30 14:00:15.942:Tag: 单相智能电表7(7) 等级:错误日志 信息: modbus readDataFromSocketE ok skid: 11 ret:23 expRxLen:23 

2025/9/30 14:00:15.946:Tag: 单相智能电表7(7) 等级:接收报文 信息:07 03 12 4a 8c 02 de 00 00 05 6f 00 00 05 76 00 00 00 61 00 00 9d 07
2025/9/30 14:00:15.950:Tag: 单相智能电表8(8) 等级:发送报文 信息:08 03 00 02 00 09 24 95
2025/9/30 14:00:15.954:Tag: 单相智能电表8(8) 等级:信息日志 信息: modbus-> sendDataToSocket ok skid: 11 ret:8 m_bufLen:8 


2025/9/30 14:00:16.221:Tag: 单相智能电表8(8) 等级:错误日志 信息: modbus readDataFromSocketE ok skid: 11 ret:23 expRxLen:23 

2025/9/30 14:00:16.225:Tag: 单相智能电表8(8) 等级:接收报文 信息:08 03 12 4a d0 08 21 00 00 0a 9a 00 00 0f 8c 00 00 07 ab 00 00 5f ec
2025/9/30 14:00:16.229:Tag: 单相智能电表9(9) 等级:发送报文 信息:09 03 00 02 00 09 25 44
2025/9/30 14:00:16.233:Tag: 单相智能电表9(9) 等级:信息日志 信息: modbus-> sendDataToSocket ok skid: 11 ret:8 m_bufLen:8 

2025/9/30 14:00:16.542:Tag: 单相智能电表9(9) 等级:错误日志 信息: modbus readDataFromSocketE ok skid: 11 ret:23 expRxLen:23 

2025/9/30 14:00:16.547:Tag: 单相智能电表9(9) 等级:接收报文 信息:09 03 12 46 4e 0d fd 00 00 10 08 00 00 19 24 00 00 0d 31 00 00 3f 6c
2025/9/30 14:00:16.551:Tag: 三相智能电表1（线路阻抗柜端口2）(51) 等级:发送报文 信息:33 03 00 0a 00 22 e1 c3
2025/9/30 14:00:16.555:Tag: 三相智能电表1（线路阻抗柜端口2）(51) 等级:信息日志 信息: modbus-> sendDataToSocket ok skid: 11 ret:8 m_bufLen:8 

2025/9/30 14:00:16.866:Tag: 三相智能电表1（线路阻抗柜端口2）(51) 等级:错误日志 信息: modbus readDataFromSocketE ok skid: 11 ret:73 expRxLen:73 

2025/9/30 14:00:16.868:Tag: 三相智能电表1（线路阻抗柜端口2）(51) 等级:接收报文 信息:33 03 44 43 4c 54 ad 43 4d a3 7c 43 4e eb ea 43 b1 85 b2 43 b2 a4 e2 43 b2 14 22 41 05 ef 16 40 a5 d6 1e 40 3b cc 9d 44 9d aa 21 44 63 de d0 44 08 23 2f 45 29 d5 90 44 83 93 6e 43 fd 2c 14 43 7e 2d 78 44 e2 a4 22 f6 83

2025/9/30 14:00:16.872:Tag: 三相智能电表2（线路阻抗柜端口4）(52) 等级:发送报文 信息:34 03 00 0a 00 22 e0 74
2025/9/30 14:00:16.874:Tag: 三相智能电表2（线路阻抗柜端口4）(52) 等级:信息日志 信息: modbus-> sendDataToSocket ok skid: 11 ret:8 m_bufLen:8 

2025/9/30 14:00:17.183:Tag: 三相智能电表2（线路阻抗柜端口4）(52) 等级:错误日志 信息: modbus readDataFromSocketE ok skid: 11 ret:73 expRxLen:73 

2025/9/30 14:00:17.186:Tag: 三相智能电表2（线路阻抗柜端口4）(52) 等级:接收报文 信息:34 03 44 43 3b 92 aa 43 44 50 7f 43 4a 61 b0 43 a6 3e 12 43 ac a5 a9 43 a8 e5 56 40 cc c5 08 40 47 42 52 3f 08 50 e1 44 4b 5f b3 43 f7 4e 17 42 84 5a 61 44 ab c9 05 44 3f 04 0c 43 8b 41 4e 42 67 d4 ee 44 89 91 01 a8 75
2025/9/30 14:00:17.189:Tag: 三相智能电表3（线路阻抗柜端口5）(53) 等级:发送报文 信息:35 03 00 0a 00 22 e1 a5
2025/9/30 14:00:17.194:Tag: 三相智能电表3（线路阻抗柜端口5）(53) 等级:信息日志 信息: modbus-> sendDataToSocket ok skid: 11 ret:8 m_bufLen:8 

2025/9/30 14:00:17.250:Tag: 线路阻抗模拟柜(1543468) 等级:接收报文 信息:05 52 00 00 00 af 01 03 ac 43 59 56 b7 43 59 8e 0c 43 59 e7 26 43 bc 50 80 43 bc 8f 0c 43 bc 77 19 41 58 82 e3 41 63 41 e6 41 50 92 82 40 0f ee 05 40 1d 3b d3 40 16 0f 30 40 e1 9c 84 3f f2 2d a8 3f ef 14 f5 3f cd 27 2b 40 ab 9a 72 00 00 00 00 00 00 00 00 00 00 00 00 41 0d d8 09 3f 4b 97 83 42 48 00 00 43 bc 8f 0c 41 63 41 e6 40 1d 3b d3 43 35 71 fc 43 39 39 45 43 42 7e 9f 43 9e c6 6e 43 a4 70 70 43 a2 d1 c6 3f 09 84 0f 3f 17 bb 97 3f 0b ca e3 3d 86 39 96 3d 91 83 6d 3d 86 6c a2 3e 4f 14 d3 3d 93 bf 07 3d ab 65 c5 3d ab 00 24 3e 75 12 78

2025/9/30 14:00:17.260:Tag: 线路阻抗模拟柜(1543468) 等级:发送报文 信息:05 53 00 00 00 06 01 03 00 87 00 56
2025/9/30 14:00:17.264:Tag: 线路阻抗模拟柜(1543468) 等级:信息日志 信息: modbus-> sendDataToSocket ok skid: 12 ret:12 m_bufLen:12 

2025/9/30 14:00:17.471:Tag: 三相智能电表3（线路阻抗柜端口5）(53) 等级:错误日志 信息: modbus readDataFromSocketE ok skid: 11 ret:73 expRxLen:73 

2025/9/30 14:00:17.475:Tag: 三相智能电表3（线路阻抗柜端口5）(53) 等级:接收报文 信息:35 03 44 43 35 56 e5 43 40 98 f6 43 49 d2 40 43 a1 f1 a4 43 aa cd cd 43 a5 fe 12 40 32 b5 35 3f 96 84 8c 3f 0a 2c 5c 43 ac d4 c4 43 55 5a b6 42 86 af 74 44 1c 96 fe 43 9c 21 20 42 82 3a 50 42 69 95 fc 43 d9 e2 73 a8 e6
2025/9/30 14:00:17.480:Tag: 三相智能电表4（线路阻抗柜端口7）(54) 等级:发送报文 信息:36 03 00 0a 00 22 e1 96
2025/9/30 14:00:17.484:Tag: 三相智能电表4（线路阻抗柜端口7）(54) 等级:信息日志 信息: modbus-> sendDataToSocket ok skid: 11 ret:8 m_bufLen:8 

2025/9/30 14:00:17.795:Tag: 三相智能电表4（线路阻抗柜端口7）(54) 等级:错误日志 信息: modbus readDataFromSocketE ok skid: 11 ret:73 expRxLen:73 

2025/9/30 14:00:17.800:Tag: 三相智能电表4（线路阻抗柜端口7）(54) 等级:接收报文 信息:36 03 44 43 32 9f 93 43 3f 8b 88 43 49 27 ab 43 a0 51 f6 43 aa 0f a2 43 a4 8b 96 40 27 24 4d 3f 0f f4 14 3f 0a 30 83 c3 a1 5e ec c2 93 f5 e3 c2 81 64 02 c3 e6 b5 64 c3 89 01 3a c2 63 80 5a c2 72 71 28 c3 c3 bf 6c 49 80

2025/9/30 14:00:17.806:Tag: 三相智能电表5(55) 等级:发送报文 信息:37 03 00 00 00 22 c0 45
2025/9/30 14:00:17.810:Tag: 三相智能电表5(55) 等级:信息日志 信息: modbus-> sendDataToSocket ok skid: 11 ret:8 m_bufLen:8 

2025/9/30 14:00:18.070:Tag: 三相智能电表5(55) 等级:错误日志 信息: modbus readDataFromSocketE ok skid: 11 ret:73 expRxLen:73 

2025/9/30 14:00:18.074:Tag: 三相智能电表5(55) 等级:接收报文 信息:37 03 44 b3 33 43 3a cc cd 43 43 b3 33 43 48 59 9a 43 a5 d9 9a 43 aa d9 9a 43 a8 31 27 40 28 33 33 40 53 7a e1 40 34 e1 48 3e fa 60 42 3f 25 b0 f2 3f 10 ce 07 3f d9 60 42 3c e5 12 6f 3d 03 8a 72 3d 0e f8 38 3d c2 e6 82
2025/9/30 14:00:18.079:Tag: 三相智能电表6(56) 等级:发送报文 信息:38 03 00 00 00 22 c0 ba
2025/9/30 14:00:18.083:Tag: 三相智能电表6(56) 等级:信息日志 信息: modbus-> sendDataToSocket ok skid: 11 ret:8 m_bufLen:8 

2025/9/30 14:00:18.393:Tag: 三相智能电表6(56) 等级:错误日志 信息: modbus readDataFromSocketE ok skid: 11 ret:73 expRxLen:73 

2025/9/30 14:00:18.397:Tag: 三相智能电表6(56) 等级:接收报文 信息:38 03 44 00 00 00 00 00 00 00 00 00 00 00 00 00 00 00 00 00 00 00 00 00 00 00 00 00 00 00 00 00 00 00 00 00 00 00 00 00 00 00 00 00 00 00 00 00 00 00 00 00 00 00 00 00 00 00 00 00 00 00 00 00 00 00 00 00 00 00 00 aa a2

2025/9/30 14:00:18.403:Tag: 单相智能电表1(1) 等级:发送报文 信息:01 03 00 02 00 09 24 0c
2025/9/30 14:00:18.407:Tag: 单相智能电表1(1) 等级:信息日志 信息: modbus-> sendDataToSocket ok skid: 11 ret:8 m_bufLen:8 

2025/9/30 14:00:18.717:Tag: 单相智能电表1(1) 等级:错误日志 信息: modbus readDataFromSocketE ok skid: 11 ret:23 expRxLen:23 

2025/9/30 14:00:18.722:Tag: 单相智能电表1(1) 等级:接收报文 信息:01 03 12 4e 55 03 d6 00 00 07 b9 00 00 07 af 00 00 00 02 00 00 8e eb
2025/9/30 14:00:18.727:Tag: 单相智能电表2(2) 等级:发送报文 信息:02 03 00 02 00 09 24 3f
2025/9/30 14:00:18.731:Tag: 单相智能电表2(2) 等级:信息日志 信息: modbus-> sendDataToSocket ok skid: 11 ret:8 m_bufLen:8 

2025/9/30 14:00:19.041:Tag: 单相智能电表2(2) 等级:错误日志 信息: modbus readDataFromSocketE ok skid: 11 ret:23 expRxLen:23 

2025/9/30 14:00:19.045:Tag: 单相智能电表2(2) 等级:接收报文 信息:02 03 12 4e 28 12 09 00 00 1a f1 00 00 24 0a 00 00 0f d0 00 00 18 33
2025/9/30 14:00:19.049:Tag: 单相智能电表3(3) 等级:发送报文 信息:03 03 00 02 00 09 25 ee
2025/9/30 14:00:19.053:Tag: 单相智能电表3(3) 等级:信息日志 信息: modbus-> sendDataToSocket ok skid: 11 ret:8 m_bufLen:8 


2025/9/30 14:00:19.363:Tag: 单相智能电表3(3) 等级:错误日志 信息: modbus readDataFromSocketE ok skid: 11 ret:23 expRxLen:23 

2025/9/30 14:00:19.367:Tag: 单相智能电表3(3) 等级:接收报文 信息:03 03 12 4e 9d 07 c2 00 00 04 fd 00 00 0f 97 00 00 09 07 00 00 83 36
2025/9/30 14:00:19.371:Tag: 单相智能电表4(4) 等级:发送报文 信息:04 03 00 02 00 09 24 59
2025/9/30 14:00:19.375:Tag: 单相智能电表4(4) 等级:信息日志 信息: modbus-> sendDataToSocket ok skid: 11 ret:8 m_bufLen:8 

2025/9/30 14:00:19.635:Tag: 单相智能电表4(4) 等级:错误日志 信息: modbus readDataFromSocketE ok skid: 11 ret:23 expRxLen:23 

2025/9/30 14:00:19.639:Tag: 单相智能电表4(4) 等级:接收报文 信息:04 03 12 4f bd 0c d0 00 00 15 48 00 00 1a 1f 00 00 09 c7 00 00 da b8
2025/9/30 14:00:19.643:Tag: 单相智能电表5(5) 等级:发送报文 信息:05 03 00 02 00 09 25 88
2025/9/30 14:00:19.646:Tag: 单相智能电表5(5) 等级:信息日志 信息: modbus-> sendDataToSocket ok skid: 11 ret:8 m_bufLen:8 

2025/9/30 14:00:19.956:Tag: 单相智能电表5(5) 等级:错误日志 信息: modbus readDataFromSocketE ok skid: 11 ret:23 expRxLen:23 

2025/9/30 14:00:19.960:Tag: 单相智能电表5(5) 等级:接收报文 信息:05 03 12 4e c7 0b b4 00 00 11 cd 00 00 17 91 00 00 0a 10 00 00 e8 d9

2025/9/30 14:00:19.964:Tag: 单相智能电表6(6) 等级:发送报文 信息:06 03 00 02 00 09 25 bb
2025/9/30 14:00:19.968:Tag: 单相智能电表6(6) 等级:信息日志 信息: modbus-> sendDataToSocket ok skid: 11 ret:8 m_bufLen:8 

2025/9/30 14:00:20.229:Tag: 可控三项负载柜(1543484) 等级:接收报文 信息:05 55 00 00 00 47 01 03 44 43 43 f5 a5 43 48 ac 0e 43 4b f9 e9 43 ab c0 26 43 af 38 44 43 ad 30 59 3f a8 da b7 3f ad a0 c0 3f b2 91 61 3e 58 54 61 3e 62 55 15 3e 6b 83 ee 3f 29 8b 5b 3e 15 2b e4 3e 1f ea ee 3e 28 af 39 3e ee e3 06
2025/9/30 14:00:20.234:Tag: 可控三项负载柜(1543484) 等级:发送报文 信息:05 56 00 00 00 06 01 03 00 96 00 22
2025/9/30 14:00:20.238:Tag: 可控三项负载柜(1543484) 等级:信息日志 信息: modbus-> sendDataToSocket ok skid: 10 ret:12 m_bufLen:12 

2025/9/30 14:00:20.242:Tag: 单相智能电表6(6) 等级:错误日志 信息: modbus readDataFromSocketE ok skid: 11 ret:23 expRxLen:23 

2025/9/30 14:00:20.246:Tag: 单相智能电表6(6) 等级:接收报文 信息:06 03 12 4f 3b 0c 09 00 00 12 de 00 00 18 61 00 00 09 ff 00 00 ea 1b
2025/9/30 14:00:20.250:Tag: 单相智能电表7(7) 等级:发送报文 信息:07 03 00 02 00 09 24 6a
2025/9/30 14:00:20.254:Tag: 单相智能电表7(7) 等级:信息日志 信息: modbus-> sendDataToSocket ok skid: 11 ret:8 m_bufLen:8 


2025/9/30 14:00:20.563:Tag: 单相智能电表7(7) 等级:错误日志 信息: modbus readDataFromSocketE ok skid: 11 ret:23 expRxLen:23 

2025/9/30 14:00:20.566:Tag: 单相智能电表7(7) 等级:接收报文 信息:07 03 12 4a 86 02 d8 00 00 05 64 00 00 05 6a 00 00 00 5a 00 00 b4 8f
2025/9/30 14:00:20.570:Tag: 单相智能电表8(8) 等级:发送报文 信息:08 03 00 02 00 09 24 95
2025/9/30 14:00:20.574:Tag: 单相智能电表8(8) 等级:信息日志 信息: modbus-> sendDataToSocket ok skid: 11 ret:8 m_bufLen:8 

2025/9/30 14:00:20.886:Tag: 单相智能电表8(8) 等级:错误日志 信息: modbus readDataFromSocketE ok skid: 11 ret:23 expRxLen:23 

2025/9/30 14:00:20.890:Tag: 单相智能电表8(8) 等级:接收报文 信息:08 03 12 4a c9 08 1f 00 00 0a 93 00 00 0f 85 00 00 07 aa 00 00 dc 37
2025/9/30 14:00:20.894:Tag: 单相智能电表9(9) 等级:发送报文 信息:09 03 00 02 00 09 25 44
2025/9/30 14:00:20.898:Tag: 单相智能电表9(9) 等级:信息日志 信息: modbus-> sendDataToSocket ok skid: 11 ret:8 m_bufLen:8 

2025/9/30 14:00:21.207:Tag: 单相智能电表9(9) 等级:错误日志 信息: modbus readDataFromSocketE ok skid: 11 ret:23 expRxLen:23 

2025/9/30 14:00:21.211:Tag: 单相智能电表9(9) 等级:接收报文 信息:09 03 12 46 48 0d f9 00 00 10 00 00 00 19 19 00 00 0d 2d 00 00 df ab

2025/9/30 14:00:21.216:Tag: 可控调压7(27) 等级:发送控制命令报文 信息:1b 06 00 01 00 4c db c5
2025/9/30 14:00:21.526:Tag: 可控调压7(27) 等级:接收控制命令报文返回 信息:1b 06 00 01 00 4c db c5
2025/9/30 14:00:21.530:Tag: 三相智能电表1（线路阻抗柜端口2）(51) 等级:发送报文 信息:33 03 00 0a 00 22 e1 c3
2025/9/30 14:00:21.534:Tag: 三相智能电表1（线路阻抗柜端口2）(51) 等级:信息日志 信息: modbus-> sendDataToSocket ok skid: 11 ret:8 m_bufLen:8 

2025/9/30 14:00:21.845:Tag: 三相智能电表1（线路阻抗柜端口2）(51) 等级:错误日志 信息: modbus readDataFromSocketE ok skid: 11 ret:73 expRxLen:73 

2025/9/30 14:00:21.849:Tag: 三相智能电表1（线路阻抗柜端口2）(51) 等级:接收报文 信息:33 03 44 43 4b fd ae 43 4d 4c 21 43 4e a8 a9 43 b1 3a 33 43 b2 61 f2 43 b1 d1 5c 41 05 af d1 40 a5 5e f5 40 3b 55 26 44 9d 20 68 44 62 e0 21 44 07 95 21 45 29 2d 84 44 83 15 eb 43 fb e3 46 43 7c e6 49 44 e1 ab 86 07 53
2025/9/30 14:00:21.854:Tag: 三相智能电表2（线路阻抗柜端口4）(52) 等级:发送报文 信息:34 03 00 0a 00 22 e0 74
2025/9/30 14:00:21.858:Tag: 三相智能电表2（线路阻抗柜端口4）(52) 等级:信息日志 信息: modbus-> sendDataToSocket ok skid: 11 ret:8 m_bufLen:8 

2025/9/30 14:00:22.120:Tag: 三相智能电表2（线路阻抗柜端口4）(52) 等级:错误日志 信息: modbus readDataFromSocketE ok skid: 11 ret:73 expRxLen:73 


2025/9/30 14:00:22.125:Tag: 三相智能电表2（线路阻抗柜端口4）(52) 等级:接收报文 信息:34 03 44 43 3b 2e 51 43 44 02 f1 43 4a 05 1b 43 a5 f1 1e 43 ac 5b f6 43 a8 91 db 40 cc 46 58 40 46 a4 cc 3f 07 e6 c6 44 4a 86 bd 43 f6 26 4a 42 83 49 42 44 ab 01 86 44 3e 14 58 43 8a 9e 7f 42 67 a3 e9 44 88 ee eb 1c 5e
2025/9/30 14:00:22.130:Tag: 三相智能电表3（线路阻抗柜端口5）(53) 等级:发送报文 信息:35 03 00 0a 00 22 e1 a5
2025/9/30 14:00:22.134:Tag: 三相智能电表3（线路阻抗柜端口5）(53) 等级:信息日志 信息: modbus-> sendDataToSocket ok skid: 11 ret:8 m_bufLen:8 

2025/9/30 14:00:22.240:Tag: 线路阻抗模拟柜(1543468) 等级:接收报文 信息:05 53 00 00 00 af 01 03 ac 43 59 77 06 43 59 9f 2f 43 59 fd 2e 43 bc 65 e9 43 bc a0 02 43 bc 8e a0 41 58 9f ea 41 62 fc de 41 50 c6 5a 40 10 33 8c 40 1d 30 2f 40 16 3d e3 40 e1 d0 d0 3f f2 98 22 3f ef 72 52 3f cd 97 30 40 ab e8 69 00 00 00 00 00 00 00 00 00 00 00 00 41 0e 04 32 3f 4b 87 57 42 48 05 1f 43 bc a0 02 41 62 fc de 40 1d 30 2f 43 35 aa 08 43 39 40 2f 43 42 9d d5 43 9e e1 a0 43 a4 81 06 43 a2 f7 6c 3f 0a 18 32 3f 17 36 66 3f 0b ef 21 3d 86 7d 61 3d 91 37 a1 3d 86 ce 24 3e 4f 41 94 3d 94 f7 46 3d aa ae 27 3d ab 27 a3 3e 75 66 89

2025/9/30 14:00:22.248:Tag: 线路阻抗模拟柜(1543468) 等级:发送报文 信息:05 54 00 00 00 06 01 03 00 87 00 56
2025/9/30 14:00:22.253:Tag: 线路阻抗模拟柜(1543468) 等级:信息日志 信息: modbus-> sendDataToSocket ok skid: 12 ret:12 m_bufLen:12 

2025/9/30 14:00:22.411:Tag: 三相智能电表3（线路阻抗柜端口5）(53) 等级:错误日志 信息: modbus readDataFromSocketE ok skid: 11 ret:73 expRxLen:73 

2025/9/30 14:00:22.416:Tag: 三相智能电表3（线路阻抗柜端口5）(53) 等级:接收报文 信息:35 03 44 43 32 2a 5b 43 40 54 ae 43 49 92 16 43 a0 77 fa 43 aa 94 78 43 a4 88 de 40 41 27 d4 3f 96 39 44 3f 08 ee 4b 43 cf 34 d8 43 54 a2 85 42 84 22 9f 44 2d 47 61 43 87 3f ee 42 81 85 f9 42 67 8e 60 43 c4 93 38 4e 48
2025/9/30 14:00:22.421:Tag: 三相智能电表4（线路阻抗柜端口7）(54) 等级:发送报文 信息:36 03 00 0a 00 22 e1 96
2025/9/30 14:00:22.425:Tag: 三相智能电表4（线路阻抗柜端口7）(54) 等级:信息日志 信息: modbus-> sendDataToSocket ok skid: 11 ret:8 m_bufLen:8 

2025/9/30 14:00:22.735:Tag: 三相智能电表4（线路阻抗柜端口7）(54) 等级:错误日志 信息: modbus readDataFromSocketE ok skid: 11 ret:73 expRxLen:73 

2025/9/30 14:00:22.740:Tag: 三相智能电表4（线路阻抗柜端口7）(54) 等级:接收报文 信息:36 03 44 43 32 4b 4a 43 3f 1d 1e 43 48 cf c5 43 9f fd 8a 43 a9 b9 d8 43 a4 41 0b 40 26 e2 49 3f 0f bc bc 3f 0a 16 43 c3 a0 b6 35 c2 93 42 4d c2 81 81 64 c3 e5 e7 22 c3 88 63 b9 c2 63 94 5c c2 70 d2 46 c3 c2 f0 8c 23 2b

2025/9/30 14:00:22.748:Tag: 三相智能电表5(55) 等级:发送报文 信息:37 03 00 00 00 22 c0 45
2025/9/30 14:00:22.754:Tag: 三相智能电表5(55) 等级:信息日志 信息: modbus-> sendDataToSocket ok skid: 11 ret:8 m_bufLen:8 

2025/9/30 14:00:23.063:Tag: 三相智能电表5(55) 等级:错误日志 信息: modbus readDataFromSocketE ok skid: 11 ret:73 expRxLen:73 

2025/9/30 14:00:23.067:Tag: 三相智能电表5(55) 等级:接收报文 信息:37 03 44 80 00 43 38 80 00 43 43 80 00 43 48 80 00 43 a3 99 9a 43 aa 99 9a 43 a8 24 dd 40 26 f1 aa 40 52 39 58 40 34 25 46 3e f5 c2 f8 3f 24 48 17 3f 10 ce d9 3f d7 d2 89 3c de 12 6f 3d 03 e7 04 3d 0c 83 12 3d c0 6f 55
2025/9/30 14:00:23.072:Tag: 三相智能电表6(56) 等级:发送报文 信息:38 03 00 00 00 22 c0 ba
2025/9/30 14:00:23.076:Tag: 三相智能电表6(56) 等级:信息日志 信息: modbus-> sendDataToSocket ok skid: 11 ret:8 m_bufLen:8 

2025/9/30 14:00:23.386:Tag: 三相智能电表6(56) 等级:错误日志 信息: modbus readDataFromSocketE ok skid: 11 ret:73 expRxLen:73 

2025/9/30 14:00:23.390:Tag: 三相智能电表6(56) 等级:接收报文 信息:38 03 44 00 00 00 00 00 00 00 00 00 00 00 00 00 00 00 00 00 00 00 00 00 00 00 00 00 00 00 00 00 00 00 00 00 00 00 00 00 00 00 00 00 00 00 00 00 00 00 00 00 00 00 00 00 00 00 00 00 00 00 00 00 00 00 00 00 00 00 00 aa a2

2025/9/30 14:00:23.396:Tag: 单相智能电表1(1) 等级:发送报文 信息:01 03 00 02 00 09 24 0c
2025/9/30 14:00:23.400:Tag: 单相智能电表1(1) 等级:信息日志 信息: modbus-> sendDataToSocket ok skid: 11 ret:8 m_bufLen:8 

2025/9/30 14:00:23.710:Tag: 单相智能电表1(1) 等级:错误日志 信息: modbus readDataFromSocketE ok skid: 11 ret:23 expRxLen:23 

2025/9/30 14:00:23.715:Tag: 单相智能电表1(1) 等级:接收报文 信息:01 03 12 4e 3b 03 d5 00 00 07 b3 00 00 07 a9 00 00 00 02 00 00 c6 4f
2025/9/30 14:00:23.719:Tag: 单相智能电表2(2) 等级:发送报文 信息:02 03 00 02 00 09 24 3f
2025/9/30 14:00:23.722:Tag: 单相智能电表2(2) 等级:信息日志 信息: modbus-> sendDataToSocket ok skid: 11 ret:8 m_bufLen:8 

2025/9/30 14:00:23.981:Tag: 单相智能电表2(2) 等级:错误日志 信息: modbus readDataFromSocketE ok skid: 11 ret:23 expRxLen:23 

2025/9/30 14:00:23.985:Tag: 单相智能电表2(2) 等级:接收报文 信息:02 03 12 4e 12 12 01 00 00 1a da 00 00 23 f0 00 00 0f c9 00 00 66 52
2025/9/30 14:00:23.989:Tag: 单相智能电表3(3) 等级:发送报文 信息:03 03 00 02 00 09 25 ee
2025/9/30 14:00:23.993:Tag: 单相智能电表3(3) 等级:信息日志 信息: modbus-> sendDataToSocket ok skid: 11 ret:8 m_bufLen:8 


2025/9/30 14:00:24.304:Tag: 单相智能电表3(3) 等级:错误日志 信息: modbus readDataFromSocketE ok skid: 11 ret:23 expRxLen:23 

2025/9/30 14:00:24.308:Tag: 单相智能电表3(3) 等级:接收报文 信息:03 03 12 4e 89 07 b6 00 00 04 ee 00 00 0f 7b 00 00 08 f5 00 00 6e 50
2025/9/30 14:00:24.312:Tag: 单相智能电表4(4) 等级:发送报文 信息:04 03 00 02 00 09 24 59
2025/9/30 14:00:24.316:Tag: 单相智能电表4(4) 等级:信息日志 信息: modbus-> sendDataToSocket ok skid: 11 ret:8 m_bufLen:8 

2025/9/30 14:00:24.626:Tag: 单相智能电表4(4) 等级:错误日志 信息: modbus readDataFromSocketE ok skid: 11 ret:23 expRxLen:23 

2025/9/30 14:00:24.630:Tag: 单相智能电表4(4) 等级:接收报文 信息:04 03 12 4f a3 0c d4 00 00 15 53 00 00 1a 1e 00 00 09 bb 00 00 17 e1
2025/9/30 14:00:24.634:Tag: 单相智能电表5(5) 等级:发送报文 信息:05 03 00 02 00 09 25 88
2025/9/30 14:00:24.637:Tag: 单相智能电表5(5) 等级:信息日志 信息: modbus-> sendDataToSocket ok skid: 11 ret:8 m_bufLen:8 

2025/9/30 14:00:24.945:Tag: 单相智能电表5(5) 等级:错误日志 信息: modbus readDataFromSocketE ok skid: 11 ret:23 expRxLen:23 

2025/9/30 14:00:24.949:Tag: 单相智能电表5(5) 等级:接收报文 信息:05 03 12 4e ae 0b af 00 00 11 be 00 00 17 80 00 00 0a 0b 00 00 99 1d

2025/9/30 14:00:24.954:Tag: 单相智能电表6(6) 等级:发送报文 信息:06 03 00 02 00 09 25 bb
2025/9/30 14:00:24.958:Tag: 单相智能电表6(6) 等级:信息日志 信息: modbus-> sendDataToSocket ok skid: 11 ret:8 m_bufLen:8 

2025/9/30 14:00:25.217:Tag: 可控三项负载柜(1543484) 等级:接收报文 信息:05 56 00 00 00 47 01 03 44 43 43 db ff 43 48 85 d8 43 4b f4 34 43 ab a4 7a 43 af 25 4a 43 ad 22 d4 3f a8 c3 90 3f ad 65 e1 3f b2 eb b6 3e 57 e6 ae 3e 61 d9 70 3e 6c 7f bb 3f 29 8f f6 3e 14 ac 58 3e 1f 4a 3c 3e 28 2b d9 3e ee 11 36
2025/9/30 14:00:25.222:Tag: 可控三项负载柜(1543484) 等级:发送报文 信息:05 57 00 00 00 06 01 03 00 96 00 22
2025/9/30 14:00:25.226:Tag: 可控三项负载柜(1543484) 等级:信息日志 信息: modbus-> sendDataToSocket ok skid: 10 ret:12 m_bufLen:12 

2025/9/30 14:00:25.230:Tag: 单相智能电表6(6) 等级:错误日志 信息: modbus readDataFromSocketE ok skid: 11 ret:23 expRxLen:23 

2025/9/30 14:00:25.235:Tag: 单相智能电表6(6) 等级:接收报文 信息:06 03 12 4e e5 0c 14 00 00 12 fc 00 00 18 5d 00 00 09 e4 00 00 73 08
2025/9/30 14:00:25.239:Tag: 单相智能电表7(7) 等级:发送报文 信息:07 03 00 02 00 09 24 6a
2025/9/30 14:00:25.243:Tag: 单相智能电表7(7) 等级:信息日志 信息: modbus-> sendDataToSocket ok skid: 11 ret:8 m_bufLen:8 


2025/9/30 14:00:25.557:Tag: 单相智能电表7(7) 等级:错误日志 信息: modbus readDataFromSocketE ok skid: 11 ret:23 expRxLen:23 

2025/9/30 14:00:25.561:Tag: 单相智能电表7(7) 等级:接收报文 信息:07 03 12 4a 68 02 d9 00 00 05 65 00 00 05 6b 00 00 00 5e 00 00 0d e7
2025/9/30 14:00:25.565:Tag: 单相智能电表8(8) 等级:发送报文 信息:08 03 00 02 00 09 24 95
2025/9/30 14:00:25.569:Tag: 单相智能电表8(8) 等级:信息日志 信息: modbus-> sendDataToSocket ok skid: 11 ret:8 m_bufLen:8 

2025/9/30 14:00:25.880:Tag: 单相智能电表8(8) 等级:错误日志 信息: modbus readDataFromSocketE ok skid: 11 ret:23 expRxLen:23 

2025/9/30 14:00:25.884:Tag: 单相智能电表8(8) 等级:接收报文 信息:08 03 12 4a ac 08 1a 00 00 0a 88 00 00 0f 77 00 00 07 a4 00 00 e1 93
2025/9/30 14:00:25.888:Tag: 单相智能电表9(9) 等级:发送报文 信息:09 03 00 02 00 09 25 44
2025/9/30 14:00:25.892:Tag: 单相智能电表9(9) 等级:信息日志 信息: modbus-> sendDataToSocket ok skid: 11 ret:8 m_bufLen:8 

2025/9/30 14:00:26.203:Tag: 单相智能电表9(9) 等级:错误日志 信息: modbus readDataFromSocketE ok skid: 11 ret:23 expRxLen:23 

2025/9/30 14:00:26.207:Tag: 单相智能电表9(9) 等级:接收报文 信息:09 03 12 44 e3 0e 5f 00 00 10 f4 00 00 19 4f 00 00 0c ee 00 00 c6 7e

2025/9/30 14:00:26.212:Tag: 可控调压8(28) 等级:发送控制命令报文 信息:1c 06 00 01 00 44 db b4
2025/9/30 14:00:26.474:Tag: 可控调压8(28) 等级:接收控制命令报文返回 信息:1c 06 00 01 00 44 db b4
2025/9/30 14:00:26.478:Tag: 可控调压9(29) 等级:发送控制命令报文 信息:1d 06 00 01 00 41 1a 66
2025/9/30 14:00:26.789:Tag: 可控调压9(29) 等级:接收控制命令报文返回 信息:1d 06 00 01 00 41 1a 66
2025/9/30 14:00:26.793:Tag: 可控调压10(30) 等级:发送控制命令报文 信息:1e 06 00 01 00 46 5b 97
2025/9/30 14:00:27.103:Tag: 可控调压10(30) 等级:接收控制命令报文返回 信息:1e 06 00 01 00 46 5b 97
2025/9/30 14:00:27.107:Tag: 三相智能电表1（线路阻抗柜端口2）(51) 等级:发送报文 信息:33 03 00 0a 00 22 e1 c3
2025/9/30 14:00:27.111:Tag: 三相智能电表1（线路阻抗柜端口2）(51) 等级:信息日志 信息: modbus-> sendDataToSocket ok skid: 11 ret:8 m_bufLen:8 

2025/9/30 14:00:27.218:Tag: 线路阻抗模拟柜(1543468) 等级:接收报文 信息:05 54 00 00 00 af 01 03 ac 43 59 13 64 43 59 44 63 43 59 a9 fb 43 bc 13 74 43 bc 54 aa 43 bc 3f 76 41 58 18 2c 41 62 4d 72 41 50 3f 08 40 0f 7e 8a 40 1c 89 22 40 15 9f 58 40 e0 d3 82 3f f1 cc 06 3f ee 21 98 3f cc cf 3e 40 ab 2f 38 00 00 00 00 00 00 00 00 00 00 00 00 41 0d 67 98 3f 4b 83 72 42 48 0a 3e 43 bc 54 aa 41 62 4d 72 40 1c 89 22 43 33 e9 26 43 37 94 1e 43 42 e1 b6 43 9d 65 ee 43 a3 e7 08 43 a2 55 42 3f 09 6c 05 3f 16 ed 57 3f 0b 53 d6 3d 85 f3 95 3d 90 fa 19 3d 86 76 df 3e 4e b2 46 3d 93 60 8d 3d aa 57 58 3d aa cb 09 3e 74 41 78

2025/9/30 14:00:27.224:Tag: 线路阻抗模拟柜(1543468) 等级:发送报文 信息:05 55 00 00 00 06 01 03 00 87 00 56
2025/9/30 14:00:27.229:Tag: 线路阻抗模拟柜(1543468) 等级:信息日志 信息: modbus-> sendDataToSocket ok skid: 12 ret:12 m_bufLen:12 

2025/9/30 14:00:27.437:Tag: 三相智能电表1（线路阻抗柜端口2）(51) 等级:错误日志 信息: modbus readDataFromSocketE ok skid: 11 ret:73 expRxLen:73 

2025/9/30 14:00:27.441:Tag: 三相智能电表1（线路阻抗柜端口2）(51) 等级:接收报文 信息:33 03 44 43 4b 63 9b 43 4d 45 bd 43 4e 85 02 43 b0 f4 cd 43 b2 4f ba 43 b1 7f 54 41 0a d3 98 40 a5 53 ef 40 3b 2d ae 44 ab 61 da 44 62 c4 d3 44 07 5d 4e 45 30 39 75 44 80 f7 78 43 fb d8 13 43 7c aa f2 44 df 82 da a9 f0
2025/9/30 14:00:27.446:Tag: 三相智能电表2（线路阻抗柜端口4）(52) 等级:发送报文 信息:34 03 00 0a 00 22 e0 74
2025/9/30 14:00:27.452:Tag: 三相智能电表2（线路阻抗柜端口4）(52) 等级:信息日志 信息: modbus-> sendDataToSocket ok skid: 11 ret:8 m_bufLen:8 

2025/9/30 14:00:27.764:Tag: 三相智能电表2（线路阻抗柜端口4）(52) 等级:错误日志 信息: modbus readDataFromSocketE ok skid: 11 ret:73 expRxLen:73 

2025/9/30 14:00:27.769:Tag: 三相智能电表2（线路阻抗柜端口4）(52) 等级:接收报文 信息:34 03 44 43 39 53 e5 43 43 e9 16 43 4a 0f 5d 43 a5 1a 28 43 ac 55 48 43 a7 cb c4 40 d4 7b a8 40 46 91 e9 3f 07 83 c6 44 66 39 e5 43 f5 e4 4a 42 83 2c 3b 44 b8 c8 c9 44 32 66 0b 43 8a d2 92 42 65 ce 20 44 83 16 1b dd ba

2025/9/30 14:00:27.774:Tag: 三相智能电表3（线路阻抗柜端口5）(53) 等级:发送报文 信息:35 03 00 0a 00 22 e1 a5
2025/9/30 14:00:27.778:Tag: 三相智能电表3（线路阻抗柜端口5）(53) 等级:信息日志 信息: modbus-> sendDataToSocket ok skid: 11 ret:8 m_bufLen:8 

2025/9/30 14:00:28.038:Tag: 三相智能电表3（线路阻抗柜端口5）(53) 等级:错误日志 信息: modbus readDataFromSocketE ok skid: 11 ret:73 expRxLen:73 

2025/9/30 14:00:28.043:Tag: 三相智能电表3（线路阻抗柜端口5）(53) 等级:接收报文 信息:35 03 44 43 31 d9 df 43 40 82 35 43 49 6e 13 43 a0 69 8d 43 aa 98 52 43 a4 56 da 40 43 b5 ef 3f 96 71 60 3f 08 d6 b6 43 d5 25 6a 43 55 35 cc 42 84 3e 54 44 30 67 f2 43 84 28 1c 42 81 d9 11 42 67 24 88 43 c1 82 f1 19 a9
2025/9/30 14:00:28.048:Tag: 三相智能电表4（线路阻抗柜端口7）(54) 等级:发送报文 信息:36 03 00 0a 00 22 e1 96
2025/9/30 14:00:28.052:Tag: 三相智能电表4（线路阻抗柜端口7）(54) 等级:信息日志 信息: modbus-> sendDataToSocket ok skid: 11 ret:8 m_bufLen:8 

2025/9/30 14:00:28.361:Tag: 三相智能电表4（线路阻抗柜端口7）(54) 等级:错误日志 信息: modbus readDataFromSocketE ok skid: 11 ret:73 expRxLen:73 

2025/9/30 14:00:28.366:Tag: 三相智能电表4（线路阻抗柜端口7）(54) 等级:接收报文 信息:36 03 44 43 2e 9c 1f 43 3f 2a f0 43 49 0f 4b 43 9e 70 bf 43 a9 db 84 43 a2 cd d6 40 36 ab 8e 3f 0f df bd 3f 09 c8 2f c3 c5 52 fe c2 93 5a 20 c2 81 59 02 c4 05 3f e3 c3 5f 9d f4 c2 64 2b cb c2 71 f8 0f c3 aa 93 74 d8 52

2025/9/30 14:00:28.371:Tag: 三相智能电表5(55) 等级:发送报文 信息:37 03 00 00 00 22 c0 45
2025/9/30 14:00:28.376:Tag: 三相智能电表5(55) 等级:信息日志 信息: modbus-> sendDataToSocket ok skid: 11 ret:8 m_bufLen:8 

2025/9/30 14:00:28.686:Tag: 三相智能电表5(55) 等级:错误日志 信息: modbus readDataFromSocketE ok skid: 11 ret:73 expRxLen:73 

2025/9/30 14:00:28.690:Tag: 三相智能电表5(55) 等级:接收报文 信息:37 03 44 80 00 43 38 99 9a 43 43 b3 33 43 48 99 9a 43 a3 c0 00 43 aa a6 66 43 a8 24 dd 40 26 f1 aa 40 52 7a e1 40 34 25 46 3e f5 f7 66 3f 24 b0 f2 3f 10 2a 99 3f d8 d2 89 3c de 12 6f 3d 03 e7 04 3d 0c 83 12 3d c0 01 8a
2025/9/30 14:00:28.695:Tag: 三相智能电表6(56) 等级:发送报文 信息:38 03 00 00 00 22 c0 ba
2025/9/30 14:00:28.699:Tag: 三相智能电表6(56) 等级:信息日志 信息: modbus-> sendDataToSocket ok skid: 11 ret:8 m_bufLen:8 

2025/9/30 14:00:28.958:Tag: 三相智能电表6(56) 等级:错误日志 信息: modbus readDataFromSocketE ok skid: 11 ret:73 expRxLen:73 

2025/9/30 14:00:28.963:Tag: 三相智能电表6(56) 等级:接收报文 信息:38 03 44 00 00 00 00 00 00 00 00 00 00 00 00 00 00 00 00 00 00 00 00 00 00 00 00 00 00 00 00 00 00 00 00 00 00 00 00 00 00 00 00 00 00 00 00 00 00 00 00 00 00 00 00 00 00 00 00 00 00 00 00 00 00 00 00 00 00 00 00 aa a2

2025/9/30 14:00:28.968:Tag: 单相智能电表1(1) 等级:发送报文 信息:01 03 00 02 00 09 24 0c
2025/9/30 14:00:28.972:Tag: 单相智能电表1(1) 等级:信息日志 信息: modbus-> sendDataToSocket ok skid: 11 ret:8 m_bufLen:8 

2025/9/30 14:00:29.282:Tag: 单相智能电表1(1) 等级:错误日志 信息: modbus readDataFromSocketE ok skid: 11 ret:23 expRxLen:23 

2025/9/30 14:00:29.287:Tag: 单相智能电表1(1) 等级:接收报文 信息:01 03 12 4e 46 03 d6 00 00 07 b6 00 00 07 ac 00 00 00 01 00 00 80 ca
2025/9/30 14:00:29.291:Tag: 单相智能电表2(2) 等级:发送报文 信息:02 03 00 02 00 09 24 3f
2025/9/30 14:00:29.295:Tag: 单相智能电表2(2) 等级:信息日志 信息: modbus-> sendDataToSocket ok skid: 11 ret:8 m_bufLen:8 

2025/9/30 14:00:29.606:Tag: 单相智能电表2(2) 等级:错误日志 信息: modbus readDataFromSocketE ok skid: 11 ret:23 expRxLen:23 

2025/9/30 14:00:29.610:Tag: 单相智能电表2(2) 等级:接收报文 信息:02 03 12 4e 26 12 02 00 00 1a dd 00 00 23 fc 00 00 0f ce 00 00 14 28
2025/9/30 14:00:29.614:Tag: 单相智能电表3(3) 等级:发送报文 信息:03 03 00 02 00 09 25 ee
2025/9/30 14:00:29.618:Tag: 单相智能电表3(3) 等级:信息日志 信息: modbus-> sendDataToSocket ok skid: 11 ret:8 m_bufLen:8 


2025/9/30 14:00:29.929:Tag: 单相智能电表3(3) 等级:错误日志 信息: modbus readDataFromSocketE ok skid: 11 ret:23 expRxLen:23 

2025/9/30 14:00:29.933:Tag: 单相智能电表3(3) 等级:接收报文 信息:03 03 12 4e 93 07 b7 00 00 04 f0 00 00 0f 80 00 00 08 f8 00 00 3f 13
2025/9/30 14:00:29.937:Tag: 单相智能电表4(4) 等级:发送报文 信息:04 03 00 02 00 09 24 59
2025/9/30 14:00:29.941:Tag: 单相智能电表4(4) 等级:信息日志 信息: modbus-> sendDataToSocket ok skid: 11 ret:8 m_bufLen:8 

2025/9/30 14:00:30.201:Tag: 单相智能电表4(4) 等级:错误日志 信息: modbus readDataFromSocketE ok skid: 11 ret:23 expRxLen:23 

2025/9/30 14:00:30.205:Tag: 单相智能电表4(4) 等级:接收报文 信息:04 03 12 4f c3 0c 86 00 00 14 54 00 00 19 88 00 00 0a 09 00 00 1c 0a
2025/9/30 14:00:30.209:Tag: 单相智能电表5(5) 等级:发送报文 信息:05 03 00 02 00 09 25 88
2025/9/30 14:00:30.213:Tag: 单相智能电表5(5) 等级:信息日志 信息: modbus-> sendDataToSocket ok skid: 11 ret:8 m_bufLen:8 

2025/9/30 14:00:30.267:Tag: 可控三项负载柜(1543484) 等级:接收报文 信息:05 57 00 00 00 47 01 03 44 43 42 78 75 43 48 5e 14 43 4b 96 80 43 aa f9 eb 43 ae eb 6e 43 ac 61 22 3f a7 62 22 3f ad b3 e4 3f b2 0c 9e 3e 54 7b 21 3e 62 2e a9 3e 6a f1 ab 3f 28 66 dd 3e 13 1d 0f 3e 1f 61 c4 3e 26 e0 48 3e ec af 8e

2025/9/30 14:00:30.280:Tag: 可控三项负载柜(1543484) 等级:发送报文 信息:05 58 00 00 00 06 01 03 00 96 00 22
2025/9/30 14:00:30.284:Tag: 可控三项负载柜(1543484) 等级:信息日志 信息: modbus-> sendDataToSocket ok skid: 10 ret:12 m_bufLen:12 

2025/9/30 14:00:30.543:Tag: 单相智能电表5(5) 等级:错误日志 信息: modbus readDataFromSocketE ok skid: 11 ret:23 expRxLen:23 

2025/9/30 14:00:30.547:Tag: 单相智能电表5(5) 等级:接收报文 信息:05 03 12 4e b7 0b 81 00 00 11 34 00 00 17 25 00 00 0a 1e 00 00 80 42
2025/9/30 14:00:30.551:Tag: 单相智能电表6(6) 等级:发送报文 信息:06 03 00 02 00 09 25 bb
2025/9/30 14:00:30.555:Tag: 单相智能电表6(6) 等级:信息日志 信息: modbus-> sendDataToSocket ok skid: 11 ret:8 m_bufLen:8 

2025/9/30 14:00:30.816:Tag: 单相智能电表6(6) 等级:错误日志 信息: modbus readDataFromSocketE ok skid: 11 ret:23 expRxLen:23 

2025/9/30 14:00:30.820:Tag: 单相智能电表6(6) 等级:接收报文 信息:06 03 12 4e f0 0b c9 00 00 12 15 00 00 17 c9 00 00 0a 12 00 00 3e 57
2025/9/30 14:00:30.824:Tag: 单相智能电表7(7) 等级:发送报文 信息:07 03 00 02 00 09 24 6a
2025/9/30 14:00:30.828:Tag: 单相智能电表7(7) 等级:信息日志 信息: modbus-> sendDataToSocket ok skid: 11 ret:8 m_bufLen:8 


2025/9/30 14:00:31.138:Tag: 单相智能电表7(7) 等级:错误日志 信息: modbus readDataFromSocketE ok skid: 11 ret:23 expRxLen:23 

2025/9/30 14:00:31.142:Tag: 单相智能电表7(7) 等级:接收报文 信息:07 03 12 4a 70 02 e1 00 00 05 73 00 00 05 7a 00 00 00 64 00 00 d4 b6
2025/9/30 14:00:31.146:Tag: 单相智能电表8(8) 等级:发送报文 信息:08 03 00 02 00 09 24 95
2025/9/30 14:00:31.150:Tag: 单相智能电表8(8) 等级:信息日志 信息: modbus-> sendDataToSocket ok skid: 11 ret:8 m_bufLen:8 

2025/9/30 14:00:31.461:Tag: 单相智能电表8(8) 等级:错误日志 信息: modbus readDataFromSocketE ok skid: 11 ret:23 expRxLen:23 

2025/9/30 14:00:31.465:Tag: 单相智能电表8(8) 等级:接收报文 信息:08 03 12 4a b8 08 19 00 00 0a 83 00 00 0f 76 00 00 07 a5 00 00 89 b2
2025/9/30 14:00:31.469:Tag: 单相智能电表9(9) 等级:发送报文 信息:09 03 00 02 00 09 25 44
2025/9/30 14:00:31.473:Tag: 单相智能电表9(9) 等级:信息日志 信息: modbus-> sendDataToSocket ok skid: 11 ret:8 m_bufLen:8 

2025/9/30 14:00:31.784:Tag: 单相智能电表9(9) 等级:错误日志 信息: modbus readDataFromSocketE ok skid: 11 ret:23 expRxLen:23 

2025/9/30 14:00:31.788:Tag: 单相智能电表9(9) 等级:接收报文 信息:09 03 12 44 ee 0e 57 00 00 10 e1 00 00 19 44 00 00 0c f2 00 00 64 e1

2025/9/30 14:00:31.794:Tag: 三相智能电表1（线路阻抗柜端口2）(51) 等级:发送报文 信息:33 03 00 0a 00 22 e1 c3
2025/9/30 14:00:31.798:Tag: 三相智能电表1（线路阻抗柜端口2）(51) 等级:信息日志 信息: modbus-> sendDataToSocket ok skid: 11 ret:8 m_bufLen:8 

2025/9/30 14:00:32.057:Tag: 三相智能电表1（线路阻抗柜端口2）(51) 等级:错误日志 信息: modbus readDataFromSocketE ok skid: 11 ret:73 expRxLen:73 

2025/9/30 14:00:32.061:Tag: 三相智能电表1（线路阻抗柜端口2）(51) 等级:接收报文 信息:33 03 44 43 4b a0 00 43 4d 8f 08 43 4e ce b1 43 b1 2e b2 43 b2 8f 5e 43 b1 b9 66 41 0a e3 b6 40 a5 74 3e 40 3b 69 c0 44 ab ac 99 44 63 16 8d 44 07 ca 00 45 30 8e 70 44 81 23 f2 43 fc 88 cc 43 7d 41 1e 44 df ee 49 5e 66
2025/9/30 14:00:32.066:Tag: 三相智能电表2（线路阻抗柜端口4）(52) 等级:发送报文 信息:34 03 00 0a 00 22 e0 74
2025/9/30 14:00:32.070:Tag: 三相智能电表2（线路阻抗柜端口4）(52) 等级:信息日志 信息: modbus-> sendDataToSocket ok skid: 11 ret:8 m_bufLen:8 

2025/9/30 14:00:32.227:Tag: 线路阻抗模拟柜(1543468) 等级:接收报文 信息:05 55 00 00 00 af 01 03 ac 43 58 e8 b2 43 59 2f 4a 43 59 86 6e 43 bb f7 d5 43 bc 3c 22 43 bc 1d 94 41 5f 54 e9 41 62 05 2d 41 50 38 68 40 17 b6 47 40 1c 2b 0f 40 15 90 a6 40 e4 b8 ff 3f f1 15 c5 3f ee 0a 5f 3f cc 7c e0 40 aa e7 41 00 00 00 00 00 00 00 00 00 00 00 00 41 0e d2 ee 3f 4c fb ae 42 48 0a 3e 43 bc 3c 22 41 62 05 2d 40 1c 2b 0f 43 33 34 5f 43 36 fd 34 43 42 cc 60 43 9c d6 5a 43 a3 9d 07 43 a1 fe b4 3f 08 cb e0 3f 17 57 b8 3f 0b 25 85 3d 83 1a b7 3d 8d f6 b1 3d 85 c3 d4 3e 4b 6a 9d 3d 91 c2 b9 3d a9 1f 2d 3d ab 08 f8 3e 72 f5 6e

2025/9/30 14:00:32.233:Tag: 线路阻抗模拟柜(1543468) 等级:发送报文 信息:05 56 00 00 00 06 01 03 00 87 00 56
2025/9/30 14:00:32.238:Tag: 线路阻抗模拟柜(1543468) 等级:信息日志 信息: modbus-> sendDataToSocket ok skid: 12 ret:12 m_bufLen:12 

2025/9/30 14:00:32.395:Tag: 三相智能电表2（线路阻抗柜端口4）(52) 等级:错误日志 信息: modbus readDataFromSocketE ok skid: 11 ret:73 expRxLen:73 

2025/9/30 14:00:32.400:Tag: 三相智能电表2（线路阻抗柜端口4）(52) 等级:接收报文 信息:34 03 44 43 39 54 c3 43 43 fe 17 43 4a 27 91 43 a5 23 b6 43 ac 68 de 43 a7 d6 c4 40 d4 6d a4 40 46 d6 65 3f 07 9b e1 44 66 38 64 43 f6 5b 1e 42 83 41 18 44 b8 e7 0a 44 32 8a 0f 43 8b 22 53 42 66 0c 3c 44 83 3d fe 55 a7
2025/9/30 14:00:32.405:Tag: 三相智能电表3（线路阻抗柜端口5）(53) 等级:发送报文 信息:35 03 00 0a 00 22 e1 a5
2025/9/30 14:00:32.409:Tag: 三相智能电表3（线路阻抗柜端口5）(53) 等级:信息日志 信息: modbus-> sendDataToSocket ok skid: 11 ret:8 m_bufLen:8 

2025/9/30 14:00:32.719:Tag: 三相智能电表3（线路阻抗柜端口5）(53) 等级:错误日志 信息: modbus readDataFromSocketE ok skid: 11 ret:73 expRxLen:73 

2025/9/30 14:00:32.724:Tag: 三相智能电表3（线路阻抗柜端口5）(53) 等级:接收报文 信息:35 03 44 43 32 05 50 43 40 9b ac 43 49 bf 0c 43 a0 87 47 43 aa c6 96 43 a4 8d 06 40 43 df a2 3f 96 63 1f 3f 09 40 63 43 d5 63 c6 43 55 60 72 42 84 bb ba 44 30 a1 77 43 84 96 d2 42 81 0c 4c 42 69 49 b8 43 c2 03 1c fe c6

2025/9/30 14:00:32.729:Tag: 三相智能电表4（线路阻抗柜端口7）(54) 等级:发送报文 信息:36 03 00 0a 00 22 e1 96
2025/9/30 14:00:32.734:Tag: 三相智能电表4（线路阻抗柜端口7）(54) 等级:信息日志 信息: modbus-> sendDataToSocket ok skid: 11 ret:8 m_bufLen:8 

2025/9/30 14:00:33.045:Tag: 三相智能电表4（线路阻抗柜端口7）(54) 等级:错误日志 信息: modbus readDataFromSocketE ok skid: 11 ret:73 expRxLen:73 

2025/9/30 14:00:33.050:Tag: 三相智能电表4（线路阻抗柜端口7）(54) 等级:接收报文 信息:36 03 44 43 2e 73 2e 43 3f 1e 72 43 49 23 e8 43 9e 59 ce 43 a9 df 26 43 a2 c5 ab 40 36 d9 bd 3f 0f ef c5 3f 0a 0d ba c3 c5 92 4e c2 93 3f 3c c2 81 74 bb c4 05 5f a6 c3 5f 6b dc c2 64 c0 46 c2 71 c4 d4 c3 aa 86 92 8d e9
2025/9/30 14:00:33.328:Tag: 三相智能电表5(55) 等级:发送报文 信息:37 03 00 00 00 22 c0 45
2025/9/30 14:00:33.333:Tag: 三相智能电表5(55) 等级:信息日志 信息: modbus-> sendDataToSocket ok skid: 11 ret:8 m_bufLen:8 

2025/9/30 14:00:33.337:Tag: 三相智能电表5(55) 等级:错误日志 信息: modbus readDataFromSocketE ok skid: 11 ret:73 expRxLen:73 

2025/9/30 14:00:33.342:Tag: 三相智能电表5(55) 等级:接收报文 信息:37 03 44 99 9a 43 38 b3 33 43 43 cc cd 43 48 99 9a 43 a3 d9 9a 43 aa cc cd 43 a8 66 66 40 26 f1 aa 40 52 7a e1 40 34 59 b4 3e f5 f7 66 3f 24 b0 f2 3f 10 44 d0 3f d8 d2 89 3c de 12 6f 3d 03 e7 04 3d 0c 83 12 3d c0 65 9a

2025/9/30 14:00:33.347:Tag: 三相智能电表6(56) 等级:发送报文 信息:38 03 00 00 00 22 c0 ba
2025/9/30 14:00:33.352:Tag: 三相智能电表6(56) 等级:信息日志 信息: modbus-> sendDataToSocket ok skid: 11 ret:8 m_bufLen:8 

2025/9/30 14:00:33.616:Tag: 三相智能电表6(56) 等级:错误日志 信息: modbus readDataFromSocketE ok skid: 11 ret:73 expRxLen:73 

2025/9/30 14:00:33.620:Tag: 三相智能电表6(56) 等级:接收报文 信息:38 03 44 00 00 00 00 00 00 00 00 00 00 00 00 00 00 00 00 00 00 00 00 00 00 00 00 00 00 00 00 00 00 00 00 00 00 00 00 00 00 00 00 00 00 00 00 00 00 00 00 00 00 00 00 00 00 00 00 00 00 00 00 00 00 00 00 00 00 00 00 aa a2
2025/9/30 14:00:33.625:Tag: 单相智能电表1(1) 等级:发送报文 信息:01 03 00 02 00 09 24 0c
2025/9/30 14:00:33.630:Tag: 单相智能电表1(1) 等级:信息日志 信息: modbus-> sendDataToSocket ok skid: 11 ret:8 m_bufLen:8 

2025/9/30 14:00:33.940:Tag: 单相智能电表1(1) 等级:错误日志 信息: modbus readDataFromSocketE ok skid: 11 ret:23 expRxLen:23 

2025/9/30 14:00:33.944:Tag: 单相智能电表1(1) 等级:接收报文 信息:01 03 12 4e 50 03 d6 00 00 07 b7 00 00 07 ae 00 00 00 02 00 00 b9 92
2025/9/30 14:00:33.949:Tag: 单相智能电表2(2) 等级:发送报文 信息:02 03 00 02 00 09 24 3f

2025/9/30 14:00:33.954:Tag: 单相智能电表2(2) 等级:信息日志 信息: modbus-> sendDataToSocket ok skid: 11 ret:8 m_bufLen:8 

2025/9/30 14:00:34.264:Tag: 单相智能电表2(2) 等级:错误日志 信息: modbus readDataFromSocketE ok skid: 11 ret:23 expRxLen:23 

2025/9/30 14:00:34.268:Tag: 单相智能电表2(2) 等级:接收报文 信息:02 03 12 4e 2d 12 04 00 00 1a e4 00 00 24 04 00 00 0f d0 00 00 6c ab
2025/9/30 14:00:34.273:Tag: 单相智能电表3(3) 等级:发送报文 信息:03 03 00 02 00 09 25 ee
2025/9/30 14:00:34.277:Tag: 单相智能电表3(3) 等级:信息日志 信息: modbus-> sendDataToSocket ok skid: 11 ret:8 m_bufLen:8 

2025/9/30 14:00:34.588:Tag: 单相智能电表3(3) 等级:错误日志 信息: modbus readDataFromSocketE ok skid: 11 ret:23 expRxLen:23 

2025/9/30 14:00:34.592:Tag: 单相智能电表3(3) 等级:接收报文 信息:03 03 12 4e 93 07 b8 00 00 04 f1 00 00 0f 82 00 00 08 fa 00 00 f6 eb
2025/9/30 14:00:34.596:Tag: 单相智能电表4(4) 等级:发送报文 信息:04 03 00 02 00 09 24 59
2025/9/30 14:00:34.600:Tag: 单相智能电表4(4) 等级:信息日志 信息: modbus-> sendDataToSocket ok skid: 11 ret:8 m_bufLen:8 

2025/9/30 14:00:34.859:Tag: 单相智能电表4(4) 等级:错误日志 信息: modbus readDataFromSocketE ok skid: 11 ret:23 expRxLen:23 


2025/9/30 14:00:34.864:Tag: 单相智能电表4(4) 等级:接收报文 信息:04 03 12 4f c5 0c 87 00 00 14 58 00 00 19 8b 00 00 0a 09 00 00 32 fb
2025/9/30 14:00:34.868:Tag: 单相智能电表5(5) 等级:发送报文 信息:05 03 00 02 00 09 25 88
2025/9/30 14:00:34.872:Tag: 单相智能电表5(5) 等级:信息日志 信息: modbus-> sendDataToSocket ok skid: 11 ret:8 m_bufLen:8 

2025/9/30 14:00:35.181:Tag: 单相智能电表5(5) 等级:错误日志 信息: modbus readDataFromSocketE ok skid: 11 ret:23 expRxLen:23 

2025/9/30 14:00:35.185:Tag: 单相智能电表5(5) 等级:接收报文 信息:05 03 12 4e c0 0b 83 00 00 11 3a 00 00 17 2c 00 00 0a 21 00 00 08 4d
2025/9/30 14:00:35.191:Tag: 单相智能电表6(6) 等级:发送报文 信息:06 03 00 02 00 09 25 bb
2025/9/30 14:00:35.196:Tag: 单相智能电表6(6) 等级:信息日志 信息: modbus-> sendDataToSocket ok skid: 11 ret:8 m_bufLen:8 

2025/9/30 14:00:35.253:Tag: 可控三项负载柜(1543484) 等级:接收报文 信息:05 58 00 00 00 47 01 03 44 43 42 9d 63 43 48 5c fb 43 4b dd ca 43 ab 09 5a 43 af 09 ea 43 ac 90 1a 3f a7 50 44 3f ad e1 fb 3f b2 ab c4 3e 55 b3 59 3e 62 3b 73 3e 6b d6 3c 3f 28 f1 43 3e 13 06 f4 3e 1f 6f 8e 3e 27 f1 85 3e ed 34 03

2025/9/30 14:00:35.268:Tag: 可控三项负载柜(1543484) 等级:发送报文 信息:05 59 00 00 00 06 01 03 00 96 00 22
2025/9/30 14:00:35.272:Tag: 可控三项负载柜(1543484) 等级:信息日志 信息: modbus-> sendDataToSocket ok skid: 10 ret:12 m_bufLen:12 

2025/9/30 14:00:35.533:Tag: 单相智能电表6(6) 等级:错误日志 信息: modbus readDataFromSocketE ok skid: 11 ret:23 expRxLen:23 

2025/9/30 14:00:35.537:Tag: 单相智能电表6(6) 等级:接收报文 信息:06 03 12 4e f9 0b ca 00 00 12 1a 00 00 17 cf 00 00 0a 15 00 00 4c d1
2025/9/30 14:00:35.541:Tag: 单相智能电表7(7) 等级:发送报文 信息:07 03 00 02 00 09 24 6a
2025/9/30 14:00:35.545:Tag: 单相智能电表7(7) 等级:信息日志 信息: modbus-> sendDataToSocket ok skid: 11 ret:8 m_bufLen:8 

2025/9/30 14:00:35.804:Tag: 单相智能电表7(7) 等级:错误日志 信息: modbus readDataFromSocketE ok skid: 11 ret:23 expRxLen:23 

2025/9/30 14:00:35.807:Tag: 单相智能电表7(7) 等级:接收报文 信息:07 03 12 4a 7a 02 df 00 00 05 71 00 00 05 78 00 00 00 62 00 00 84 7d
2025/9/30 14:00:35.811:Tag: 单相智能电表8(8) 等级:发送报文 信息:08 03 00 02 00 09 24 95
2025/9/30 14:00:35.814:Tag: 单相智能电表8(8) 等级:信息日志 信息: modbus-> sendDataToSocket ok skid: 11 ret:8 m_bufLen:8 


2025/9/30 14:00:36.123:Tag: 单相智能电表8(8) 等级:错误日志 信息: modbus readDataFromSocketE ok skid: 11 ret:23 expRxLen:23 

2025/9/30 14:00:36.127:Tag: 单相智能电表8(8) 等级:接收报文 信息:08 03 12 4a bf 08 1a 00 00 0a 86 00 00 0f 79 00 00 07 a7 00 00 37 8e
2025/9/30 14:00:36.131:Tag: 单相智能电表9(9) 等级:发送报文 信息:09 03 00 02 00 09 25 44
2025/9/30 14:00:36.135:Tag: 单相智能电表9(9) 等级:信息日志 信息: modbus-> sendDataToSocket ok skid: 11 ret:8 m_bufLen:8 

2025/9/30 14:00:36.443:Tag: 单相智能电表9(9) 等级:错误日志 信息: modbus readDataFromSocketE ok skid: 11 ret:23 expRxLen:23 

2025/9/30 14:00:36.447:Tag: 单相智能电表9(9) 等级:接收报文 信息:09 03 12 44 f0 0e 60 00 00 10 f5 00 00 19 54 00 00 0c f5 00 00 9b a1
2025/9/30 14:00:36.451:Tag: 三相智能电表1（线路阻抗柜端口2）(51) 等级:发送报文 信息:33 03 00 0a 00 22 e1 c3
2025/9/30 14:00:36.458:Tag: 三相智能电表1（线路阻抗柜端口2）(51) 等级:信息日志 信息: modbus-> sendDataToSocket ok skid: 11 ret:8 m_bufLen:8 

2025/9/30 14:00:36.769:Tag: 三相智能电表1（线路阻抗柜端口2）(51) 等级:错误日志 信息: modbus readDataFromSocketE ok skid: 11 ret:73 expRxLen:73 

2025/9/30 14:00:36.773:Tag: 三相智能电表1（线路阻抗柜端口2）(51) 等级:接收报文 信息:33 03 44 43 4b ae 2f 43 4d 94 01 43 4e e6 16 43 b1 36 fc 43 b2 9b a8 43 b1 c9 ae 41 0a f1 33 40 a5 99 64 40 3b 8c f9 44 ab b8 f9 44 63 6b 5a 44 07 e5 f4 45 30 b0 d0 44 81 47 62 43 fc c0 20 43 7e 1a e3 44 e0 3a c6 b5 0d

2025/9/30 14:00:36.778:Tag: 三相智能电表2（线路阻抗柜端口4）(52) 等级:发送报文 信息:34 03 00 0a 00 22 e0 74
2025/9/30 14:00:36.782:Tag: 三相智能电表2（线路阻抗柜端口4）(52) 等级:信息日志 信息: modbus-> sendDataToSocket ok skid: 11 ret:8 m_bufLen:8 

2025/9/30 14:00:37.041:Tag: 三相智能电表2（线路阻抗柜端口4）(52) 等级:错误日志 信息: modbus readDataFromSocketE ok skid: 11 ret:73 expRxLen:73 

2025/9/30 14:00:37.046:Tag: 三相智能电表2（线路阻抗柜端口4）(52) 等级:接收报文 信息:34 03 44 43 39 7f 11 43 44 34 78 43 4a 64 4e 43 a5 4d 9e 43 ac 9a ba 43 a8 03 7c 40 d4 ae 74 40 47 15 8e 3f 08 00 65 44 66 c9 08 43 f6 b7 90 42 84 6a ca 44 b9 59 15 44 32 c8 cd 43 8b cf a9 42 66 b2 e4 44 83 8d e8 ed 3e
2025/9/30 14:00:37.051:Tag: 三相智能电表3（线路阻抗柜端口5）(53) 等级:发送报文 信息:35 03 00 0a 00 22 e1 a5
2025/9/30 14:00:37.055:Tag: 三相智能电表3（线路阻抗柜端口5）(53) 等级:信息日志 信息: modbus-> sendDataToSocket ok skid: 11 ret:8 m_bufLen:8 

2025/9/30 14:00:37.212:Tag: 线路阻抗模拟柜(1543468) 等级:接收报文 信息:05 56 00 00 00 af 01 03 ac 43 59 0d bf 43 59 52 d0 43 59 ba 3d 43 bc 17 42 43 bc 61 f4 43 bc 44 0f 41 5e 80 56 41 61 b6 13 41 4f af 8a 40 16 60 b7 40 1b 64 b7 40 14 1a 9e 40 e2 f0 06 3f f2 86 75 3f ef 97 69 3f cf aa 39 40 ac 72 07 00 00 00 00 00 00 00 00 00 00 00 00 41 0e 90 e4 3f 4b c0 58 42 48 0a 3e 43 bc 61 f4 41 61 b6 13 40 1b 64 b7 43 33 35 e8 43 37 1e 45 43 43 10 6b 43 9c e5 61 43 a3 c8 f6 43 a2 1d 3a 3f 09 64 99 3f 17 2b 90 3f 0b c9 4c 3d 83 95 9f 3d 8e 91 f2 3d 86 09 d1 3e 4c 18 b0 3d 92 94 b1 3d a9 75 ad 3d ac 19 5a 3e 74 11 dc

2025/9/30 14:00:37.219:Tag: 线路阻抗模拟柜(1543468) 等级:发送报文 信息:05 57 00 00 00 06 01 03 00 87 00 56
2025/9/30 14:00:37.223:Tag: 线路阻抗模拟柜(1543468) 等级:信息日志 信息: modbus-> sendDataToSocket ok skid: 12 ret:12 m_bufLen:12 

2025/9/30 14:00:37.381:Tag: 三相智能电表3（线路阻抗柜端口5）(53) 等级:错误日志 信息: modbus readDataFromSocketE ok skid: 11 ret:73 expRxLen:73 

2025/9/30 14:00:37.386:Tag: 三相智能电表3（线路阻抗柜端口5）(53) 等级:接收报文 信息:35 03 44 43 31 f7 56 43 40 81 a3 43 49 cc ad 43 a0 75 e3 43 aa c1 59 43 a4 8d 20 40 43 f0 48 3f 96 b4 94 3f 09 93 fc 43 d5 a0 96 43 55 c3 82 42 84 af 77 44 30 d7 1a 43 84 4f 0a 42 82 2c 96 42 6a 51 b8 43 c2 24 66 24 ba
2025/9/30 14:00:37.391:Tag: 三相智能电表4（线路阻抗柜端口7）(54) 等级:发送报文 信息:36 03 00 0a 00 22 e1 96
2025/9/30 14:00:37.395:Tag: 三相智能电表4（线路阻抗柜端口7）(54) 等级:信息日志 信息: modbus-> sendDataToSocket ok skid: 11 ret:8 m_bufLen:8 

2025/9/30 14:00:37.656:Tag: 三相智能电表4（线路阻抗柜端口7）(54) 等级:错误日志 信息: modbus readDataFromSocketE ok skid: 11 ret:73 expRxLen:73 

2025/9/30 14:00:37.661:Tag: 三相智能电表4（线路阻抗柜端口7）(54) 等级:接收报文 信息:36 03 44 43 2e 7c dd 43 3f 51 3d 43 49 1a 29 43 9e 74 41 43 a9 f0 b4 43 a2 c5 71 40 37 3a ac 3f 0f 76 ee 3f 09 ba 37 c3 c6 00 6e c2 92 b5 ee c2 80 61 e0 c4 05 63 30 c3 5f ab 88 c2 63 2f b4 c2 71 d1 2d c3 aa 75 e0 36 69

2025/9/30 14:00:37.666:Tag: 三相智能电表5(55) 等级:发送报文 信息:37 03 00 00 00 22 c0 45
2025/9/30 14:00:37.671:Tag: 三相智能电表5(55) 等级:信息日志 信息: modbus-> sendDataToSocket ok skid: 11 ret:8 m_bufLen:8 

2025/9/30 14:00:37.981:Tag: 三相智能电表5(55) 等级:错误日志 信息: modbus readDataFromSocketE ok skid: 11 ret:73 expRxLen:73 

2025/9/30 14:00:37.984:Tag: 三相智能电表5(55) 等级:接收报文 信息:37 03 44 80 00 43 38 80 00 43 43 b3 33 43 48 80 00 43 a3 b3 33 43 aa b3 33 43 a8 24 dd 40 26 b0 21 40 52 39 58 40 34 f0 d8 3e f4 a8 c1 3f 24 7c 85 3f 10 db f5 3f d7 d2 89 3c de 6f 00 3d 01 e7 04 3d 0c b1 5b 3d bf 1c 41
2025/9/30 14:00:37.988:Tag: 三相智能电表6(56) 等级:发送报文 信息:38 03 00 00 00 22 c0 ba
2025/9/30 14:00:37.991:Tag: 三相智能电表6(56) 等级:信息日志 信息: modbus-> sendDataToSocket ok skid: 11 ret:8 m_bufLen:8 

2025/9/30 14:00:38.301:Tag: 三相智能电表6(56) 等级:错误日志 信息: modbus readDataFromSocketE ok skid: 11 ret:73 expRxLen:73 

2025/9/30 14:00:38.305:Tag: 三相智能电表6(56) 等级:接收报文 信息:38 03 44 00 00 00 00 00 00 00 00 00 00 00 00 00 00 00 00 00 00 00 00 00 00 00 00 00 00 00 00 00 00 00 00 00 00 00 00 00 00 00 00 00 00 00 00 00 00 00 00 00 00 00 00 00 00 00 00 00 00 00 00 00 00 00 00 00 00 00 00 aa a2

2025/9/30 14:00:38.311:Tag: 单相智能电表1(1) 等级:发送报文 信息:01 03 00 02 00 09 24 0c
2025/9/30 14:00:38.315:Tag: 单相智能电表1(1) 等级:信息日志 信息: modbus-> sendDataToSocket ok skid: 11 ret:8 m_bufLen:8 

2025/9/30 14:00:38.627:Tag: 单相智能电表1(1) 等级:错误日志 信息: modbus readDataFromSocketE ok skid: 11 ret:23 expRxLen:23 

2025/9/30 14:00:38.632:Tag: 单相智能电表1(1) 等级:接收报文 信息:01 03 12 4e 44 03 d6 00 00 07 b6 00 00 07 ac 00 00 00 02 00 00 d1 aa
2025/9/30 14:00:38.636:Tag: 单相智能电表2(2) 等级:发送报文 信息:02 03 00 02 00 09 24 3f
2025/9/30 14:00:38.640:Tag: 单相智能电表2(2) 等级:信息日志 信息: modbus-> sendDataToSocket ok skid: 11 ret:8 m_bufLen:8 

2025/9/30 14:00:38.899:Tag: 单相智能电表2(2) 等级:错误日志 信息: modbus readDataFromSocketE ok skid: 11 ret:23 expRxLen:23 

2025/9/30 14:00:38.903:Tag: 单相智能电表2(2) 等级:接收报文 信息:02 03 12 4e 25 12 02 00 00 1a dd 00 00 23 fb 00 00 0f ce 00 00 92 18
2025/9/30 14:00:38.907:Tag: 单相智能电表3(3) 等级:发送报文 信息:03 03 00 02 00 09 25 ee
2025/9/30 14:00:38.911:Tag: 单相智能电表3(3) 等级:信息日志 信息: modbus-> sendDataToSocket ok skid: 11 ret:8 m_bufLen:8 


2025/9/30 14:00:39.222:Tag: 单相智能电表3(3) 等级:错误日志 信息: modbus readDataFromSocketE ok skid: 11 ret:23 expRxLen:23 

2025/9/30 14:00:39.226:Tag: 单相智能电表3(3) 等级:接收报文 信息:03 03 12 4e 91 07 b7 00 00 04 f0 00 00 0f 80 00 00 08 f8 00 00 9e 73
2025/9/30 14:00:39.230:Tag: 单相智能电表4(4) 等级:发送报文 信息:04 03 00 02 00 09 24 59
2025/9/30 14:00:39.234:Tag: 单相智能电表4(4) 等级:信息日志 信息: modbus-> sendDataToSocket ok skid: 11 ret:8 m_bufLen:8 

2025/9/30 14:00:39.543:Tag: 单相智能电表4(4) 等级:错误日志 信息: modbus readDataFromSocketE ok skid: 11 ret:23 expRxLen:23 

2025/9/30 14:00:39.547:Tag: 单相智能电表4(4) 等级:接收报文 信息:04 03 12 4f c2 0c 85 00 00 14 50 00 00 19 86 00 00 0a 0a 00 00 04 6b
2025/9/30 14:00:39.551:Tag: 单相智能电表5(5) 等级:发送报文 信息:05 03 00 02 00 09 25 88
2025/9/30 14:00:39.555:Tag: 单相智能电表5(5) 等级:信息日志 信息: modbus-> sendDataToSocket ok skid: 11 ret:8 m_bufLen:8 

2025/9/30 14:00:39.864:Tag: 单相智能电表5(5) 等级:错误日志 信息: modbus readDataFromSocketE ok skid: 11 ret:23 expRxLen:23 

2025/9/30 14:00:39.868:Tag: 单相智能电表5(5) 等级:接收报文 信息:05 03 12 4e c0 0b 82 00 00 11 37 00 00 17 2b 00 00 0a 21 00 00 84 21

2025/9/30 14:00:39.873:Tag: 单相智能电表6(6) 等级:发送报文 信息:06 03 00 02 00 09 25 bb
2025/9/30 14:00:39.877:Tag: 单相智能电表6(6) 等级:信息日志 信息: modbus-> sendDataToSocket ok skid: 11 ret:8 m_bufLen:8 

2025/9/30 14:00:40.136:Tag: 单相智能电表6(6) 等级:错误日志 信息: modbus readDataFromSocketE ok skid: 11 ret:23 expRxLen:23 

2025/9/30 14:00:40.140:Tag: 单相智能电表6(6) 等级:接收报文 信息:06 03 12 4e fb 0b ca 00 00 12 1a 00 00 17 cf 00 00 0a 15 00 00 ed b1
2025/9/30 14:00:40.144:Tag: 单相智能电表7(7) 等级:发送报文 信息:07 03 00 02 00 09 24 6a
2025/9/30 14:00:40.148:Tag: 单相智能电表7(7) 等级:信息日志 信息: modbus-> sendDataToSocket ok skid: 11 ret:8 m_bufLen:8 

2025/9/30 14:00:40.254:Tag: 可控三项负载柜(1543484) 等级:接收报文 信息:05 59 00 00 00 47 01 03 44 43 42 b7 0e 43 48 84 30 43 4c 06 28 43 ab 25 78 43 af 2c 60 43 ac ac be 3f a7 87 84 3f ad fd 1a 3f b2 82 aa 3e 54 db b8 3e 62 e2 87 3e 6b ff 67 3f 28 ef 69 3e 13 b3 4e 3e 20 2b c7 3e 27 6d 63 3e ed a6 3c
2025/9/30 14:00:40.259:Tag: 可控三项负载柜(1543484) 等级:发送报文 信息:05 5a 00 00 00 06 01 03 00 96 00 22
2025/9/30 14:00:40.263:Tag: 可控三项负载柜(1543484) 等级:信息日志 信息: modbus-> sendDataToSocket ok skid: 10 ret:12 m_bufLen:12 


2025/9/30 14:00:40.473:Tag: 单相智能电表7(7) 等级:错误日志 信息: modbus readDataFromSocketE ok skid: 11 ret:23 expRxLen:23 

2025/9/30 14:00:40.477:Tag: 单相智能电表7(7) 等级:接收报文 信息:07 03 12 4a 7c 02 db 00 00 05 6a 00 00 05 70 00 00 00 5e 00 00 5b f7
2025/9/30 14:00:40.481:Tag: 单相智能电表8(8) 等级:发送报文 信息:08 03 00 02 00 09 24 95
2025/9/30 14:00:40.485:Tag: 单相智能电表8(8) 等级:信息日志 信息: modbus-> sendDataToSocket ok skid: 11 ret:8 m_bufLen:8 

2025/9/30 14:00:40.797:Tag: 单相智能电表8(8) 等级:错误日志 信息: modbus readDataFromSocketE ok skid: 11 ret:23 expRxLen:23 

2025/9/30 14:00:40.801:Tag: 单相智能电表8(8) 等级:接收报文 信息:08 03 12 4a c0 08 19 00 00 0a 84 00 00 0f 78 00 00 07 a7 00 00 7f df
2025/9/30 14:00:40.805:Tag: 单相智能电表9(9) 等级:发送报文 信息:09 03 00 02 00 09 25 44
2025/9/30 14:00:40.809:Tag: 单相智能电表9(9) 等级:信息日志 信息: modbus-> sendDataToSocket ok skid: 11 ret:8 m_bufLen:8 

2025/9/30 14:00:41.119:Tag: 单相智能电表9(9) 等级:错误日志 信息: modbus readDataFromSocketE ok skid: 11 ret:23 expRxLen:23 

2025/9/30 14:00:41.123:Tag: 单相智能电表9(9) 等级:接收报文 信息:09 03 12 44 ee 0e 5c 00 00 10 ed 00 00 19 4e 00 00 0c f3 00 00 eb 76

2025/9/30 14:00:41.128:Tag: 可控调压1(21) 等级:发送控制命令报文 信息:15 06 00 01 00 49 1a e8
2025/9/30 14:00:41.387:Tag: 可控调压1(21) 等级:接收控制命令报文返回 信息:15 06 00 01 00 49 1a e8
2025/9/30 14:00:41.391:Tag: 三相智能电表1（线路阻抗柜端口2）(51) 等级:发送报文 信息:33 03 00 0a 00 22 e1 c3
2025/9/30 14:00:41.396:Tag: 三相智能电表1（线路阻抗柜端口2）(51) 等级:信息日志 信息: modbus-> sendDataToSocket ok skid: 11 ret:8 m_bufLen:8 

2025/9/30 14:00:41.706:Tag: 三相智能电表1（线路阻抗柜端口2）(51) 等级:错误日志 信息: modbus readDataFromSocketE ok skid: 11 ret:73 expRxLen:73 

2025/9/30 14:00:41.710:Tag: 三相智能电表1（线路阻抗柜端口2）(51) 等级:接收报文 信息:33 03 44 43 4b 6a f6 43 4d 76 0e 43 4e bc 08 43 b1 0c ef 43 b2 7c 7a 43 b1 9a 64 41 0a c7 e8 40 a5 48 c8 40 3b 3b a5 44 ab 63 28 44 62 c7 9e 44 07 a5 a6 45 30 4c e6 44 80 f3 f2 43 fc 5b 14 43 7d 35 09 44 df b1 59 1b b8
2025/9/30 14:00:41.715:Tag: 三相智能电表2（线路阻抗柜端口4）(52) 等级:发送报文 信息:34 03 00 0a 00 22 e0 74
2025/9/30 14:00:41.719:Tag: 三相智能电表2（线路阻抗柜端口4）(52) 等级:信息日志 信息: modbus-> sendDataToSocket ok skid: 11 ret:8 m_bufLen:8 

2025/9/30 14:00:42.029:Tag: 三相智能电表2（线路阻抗柜端口4）(52) 等级:错误日志 信息: modbus readDataFromSocketE ok skid: 11 ret:73 expRxLen:73 


2025/9/30 14:00:42.034:Tag: 三相智能电表2（线路阻抗柜端口4）(52) 等级:接收报文 信息:34 03 44 43 39 46 88 43 44 08 fa 43 4a 29 32 43 a5 22 5e 43 ac 6e 44 43 a7 d1 68 40 d4 70 8e 40 46 80 e5 3f 07 95 60 44 66 1b 26 43 f5 d4 72 42 83 bf 30 44 b8 be a2 44 32 87 89 43 8b 23 ae 42 65 87 b0 44 83 38 ee 50 84
2025/9/30 14:00:42.039:Tag: 三相智能电表3（线路阻抗柜端口5）(53) 等级:发送报文 信息:35 03 00 0a 00 22 e1 a5
2025/9/30 14:00:42.044:Tag: 三相智能电表3（线路阻抗柜端口5）(53) 等级:信息日志 信息: modbus-> sendDataToSocket ok skid: 11 ret:8 m_bufLen:8 

2025/9/30 14:00:42.252:Tag: 线路阻抗模拟柜(1543468) 等级:接收报文 信息:05 57 00 00 00 af 01 03 ac 43 59 22 f7 43 59 65 27 43 59 d9 14 43 bc 28 63 43 bc 77 40 43 bc 5a 9a 41 5e a4 e5 41 61 e7 27 41 4f de 0c 40 16 85 91 40 1b 9b 82 40 14 5b 51 40 e3 3e 31 3f f2 cc 67 3f ef cb 50 3f cf d8 16 40 ac 9b f3 00 00 00 00 00 00 00 00 00 00 00 00 41 0e bc e6 3f 4b c7 a1 42 48 05 1f 43 bc 77 40 41 61 e7 27 40 1b 9b 82 43 33 76 17 43 37 5e 67 43 43 3c 92 43 9d 1c f1 43 a3 f7 c0 43 a2 4c 00 3f 08 b8 9e 3f 17 5c 05 3f 0b 5f 2e 3d 82 d1 cb 3d 8e d5 dd 3d 86 58 b5 3e 4c 00 2f 3d 92 57 56 3d a9 fe c8 3d ab 47 fe 3e 73 cf 0f

2025/9/30 14:00:42.258:Tag: 线路阻抗模拟柜(1543468) 等级:发送报文 信息:05 58 00 00 00 06 01 03 00 87 00 56
2025/9/30 14:00:42.263:Tag: 线路阻抗模拟柜(1543468) 等级:信息日志 信息: modbus-> sendDataToSocket ok skid: 12 ret:12 m_bufLen:12 

2025/9/30 14:00:42.318:Tag: 三相智能电表3（线路阻抗柜端口5）(53) 等级:错误日志 信息: modbus readDataFromSocketE ok skid: 11 ret:73 expRxLen:73 

2025/9/30 14:00:42.328:Tag: 三相智能电表3（线路阻抗柜端口5）(53) 等级:接收报文 信息:35 03 44 43 31 c4 8c 43 40 43 53 43 49 a7 4c 43 a0 44 dc 43 aa 96 45 43 a4 67 18 40 43 84 cf 3f 96 81 fc 3f 08 f3 04 43 d4 95 ea 43 55 02 3e 42 84 ad 99 44 30 21 38 43 84 52 ef 42 81 c1 e9 42 66 95 48 43 c1 96 12 f6 e2
2025/9/30 14:00:42.333:Tag: 三相智能电表4（线路阻抗柜端口7）(54) 等级:发送报文 信息:36 03 00 0a 00 22 e1 96
2025/9/30 14:00:42.338:Tag: 三相智能电表4（线路阻抗柜端口7）(54) 等级:信息日志 信息: modbus-> sendDataToSocket ok skid: 11 ret:8 m_bufLen:8 

2025/9/30 14:00:42.647:Tag: 三相智能电表4（线路阻抗柜端口7）(54) 等级:错误日志 信息: modbus readDataFromSocketE ok skid: 11 ret:73 expRxLen:73 

2025/9/30 14:00:42.652:Tag: 三相智能电表4（线路阻抗柜端口7）(54) 等级:接收报文 信息:36 03 44 43 2e 43 db 43 3f 42 e8 43 49 00 be 43 9e 55 a9 43 a9 df 74 43 a2 a2 1a 40 36 ed 97 3f 0f 40 16 3f 09 ba 47 c3 c5 99 b6 c2 92 8e b8 c2 80 48 b6 c4 05 27 ca c3 5e e3 e4 c2 62 dd f3 c2 73 41 48 c3 aa 35 d9 af 28

2025/9/30 14:00:42.657:Tag: 三相智能电表5(55) 等级:发送报文 信息:37 03 00 00 00 22 c0 45
2025/9/30 14:00:42.662:Tag: 三相智能电表5(55) 等级:信息日志 信息: modbus-> sendDataToSocket ok skid: 11 ret:8 m_bufLen:8 

2025/9/30 14:00:42.975:Tag: 三相智能电表5(55) 等级:错误日志 信息: modbus readDataFromSocketE ok skid: 11 ret:73 expRxLen:73 

2025/9/30 14:00:42.979:Tag: 三相智能电表5(55) 等级:接收报文 信息:37 03 44 80 00 43 38 80 00 43 43 99 9a 43 48 80 00 43 a3 b3 33 43 aa 99 9a 43 a8 24 dd 40 26 b0 21 40 52 39 58 40 34 25 46 3e f5 8e 8a 3f 24 62 4e 3f 10 ce d9 3f d7 d2 89 3c de 6f 00 3d 01 e7 04 3d 0c b1 5b 3d bf 04 8a
2025/9/30 14:00:42.984:Tag: 三相智能电表6(56) 等级:发送报文 信息:38 03 00 00 00 22 c0 ba
2025/9/30 14:00:42.989:Tag: 三相智能电表6(56) 等级:信息日志 信息: modbus-> sendDataToSocket ok skid: 11 ret:8 m_bufLen:8 

2025/9/30 14:00:43.300:Tag: 三相智能电表6(56) 等级:错误日志 信息: modbus readDataFromSocketE ok skid: 11 ret:73 expRxLen:73 

2025/9/30 14:00:43.304:Tag: 三相智能电表6(56) 等级:接收报文 信息:38 03 44 00 00 00 00 00 00 00 00 00 00 00 00 00 00 00 00 00 00 00 00 00 00 00 00 00 00 00 00 00 00 00 00 00 00 00 00 00 00 00 00 00 00 00 00 00 00 00 00 00 00 00 00 00 00 00 00 00 00 00 00 00 00 00 00 00 00 00 00 aa a2

2025/9/30 14:00:43.311:Tag: 单相智能电表1(1) 等级:发送报文 信息:01 03 00 02 00 09 24 0c
2025/9/30 14:00:43.315:Tag: 单相智能电表1(1) 等级:信息日志 信息: modbus-> sendDataToSocket ok skid: 11 ret:8 m_bufLen:8 

2025/9/30 14:00:43.574:Tag: 单相智能电表1(1) 等级:错误日志 信息: modbus readDataFromSocketE ok skid: 11 ret:23 expRxLen:23 

2025/9/30 14:00:43.578:Tag: 单相智能电表1(1) 等级:接收报文 信息:01 03 12 4e 3e 03 d5 00 00 07 b4 00 00 07 ab 00 00 00 02 00 00 ec aa
2025/9/30 14:00:43.582:Tag: 单相智能电表2(2) 等级:发送报文 信息:02 03 00 02 00 09 24 3f
2025/9/30 14:00:43.586:Tag: 单相智能电表2(2) 等级:信息日志 信息: modbus-> sendDataToSocket ok skid: 11 ret:8 m_bufLen:8 

2025/9/30 14:00:43.898:Tag: 单相智能电表2(2) 等级:错误日志 信息: modbus readDataFromSocketE ok skid: 11 ret:23 expRxLen:23 

2025/9/30 14:00:43.902:Tag: 单相智能电表2(2) 等级:接收报文 信息:02 03 12 4e 1e 11 fe 00 00 1a d3 00 00 23 f1 00 00 0f ca 00 00 92 bc
2025/9/30 14:00:43.906:Tag: 单相智能电表3(3) 等级:发送报文 信息:03 03 00 02 00 09 25 ee
2025/9/30 14:00:43.910:Tag: 单相智能电表3(3) 等级:信息日志 信息: modbus-> sendDataToSocket ok skid: 11 ret:8 m_bufLen:8 


2025/9/30 14:00:44.221:Tag: 单相智能电表3(3) 等级:错误日志 信息: modbus readDataFromSocketE ok skid: 11 ret:23 expRxLen:23 

2025/9/30 14:00:44.225:Tag: 单相智能电表3(3) 等级:接收报文 信息:03 03 12 4e 8b 07 b4 00 00 04 ec 00 00 0f 78 00 00 08 f4 00 00 24 49
2025/9/30 14:00:44.229:Tag: 单相智能电表4(4) 等级:发送报文 信息:04 03 00 02 00 09 24 59
2025/9/30 14:00:44.232:Tag: 单相智能电表4(4) 等级:信息日志 信息: modbus-> sendDataToSocket ok skid: 11 ret:8 m_bufLen:8 

2025/9/30 14:00:44.539:Tag: 单相智能电表4(4) 等级:错误日志 信息: modbus readDataFromSocketE ok skid: 11 ret:23 expRxLen:23 

2025/9/30 14:00:44.541:Tag: 单相智能电表4(4) 等级:接收报文 信息:04 03 12 4f b6 0c 81 00 00 14 43 00 00 19 7a 00 00 0a 09 00 00 f0 f9
2025/9/30 14:00:44.543:Tag: 单相智能电表5(5) 等级:发送报文 信息:05 03 00 02 00 09 25 88
2025/9/30 14:00:44.545:Tag: 单相智能电表5(5) 等级:信息日志 信息: modbus-> sendDataToSocket ok skid: 11 ret:8 m_bufLen:8 

2025/9/30 14:00:44.853:Tag: 单相智能电表5(5) 等级:错误日志 信息: modbus readDataFromSocketE ok skid: 11 ret:23 expRxLen:23 

2025/9/30 14:00:44.855:Tag: 单相智能电表5(5) 等级:接收报文 信息:05 03 12 4e ac 0b 7e 00 00 11 2c 00 00 17 1e 00 00 0a 1c 00 00 10 56

2025/9/30 14:00:44.859:Tag: 单相智能电表6(6) 等级:发送报文 信息:06 03 00 02 00 09 25 bb
2025/9/30 14:00:44.862:Tag: 单相智能电表6(6) 等级:信息日志 信息: modbus-> sendDataToSocket ok skid: 11 ret:8 m_bufLen:8 

2025/9/30 14:00:45.120:Tag: 单相智能电表6(6) 等级:错误日志 信息: modbus readDataFromSocketE ok skid: 11 ret:23 expRxLen:23 

2025/9/30 14:00:45.123:Tag: 单相智能电表6(6) 等级:接收报文 信息:06 03 12 4e eb 0b c8 00 00 12 11 00 00 17 c5 00 00 0a 12 00 00 5c 90
2025/9/30 14:00:45.126:Tag: 单相智能电表7(7) 等级:发送报文 信息:07 03 00 02 00 09 24 6a
2025/9/30 14:00:45.130:Tag: 单相智能电表7(7) 等级:信息日志 信息: modbus-> sendDataToSocket ok skid: 11 ret:8 m_bufLen:8 

2025/9/30 14:00:45.237:Tag: 可控三项负载柜(1543484) 等级:接收报文 信息:05 5a 00 00 00 47 01 03 44 43 42 a9 14 43 48 7a 87 43 4b e5 54 43 ab 1b 3f 43 af 19 f2 43 ac 98 6a 3f a7 c5 3e 3f ad 61 37 3f b2 97 f5 3e 55 13 5e 3e 61 f8 ff 3e 6c 0b ee 3f 28 c6 13 3e 13 be 8c 3e 1f 02 4a 3e 27 aa 17 3e ed 35 76
2025/9/30 14:00:45.242:Tag: 可控三项负载柜(1543484) 等级:发送报文 信息:05 5b 00 00 00 06 01 03 00 96 00 22
2025/9/30 14:00:45.246:Tag: 可控三项负载柜(1543484) 等级:信息日志 信息: modbus-> sendDataToSocket ok skid: 10 ret:12 m_bufLen:12 


2025/9/30 14:00:45.456:Tag: 单相智能电表7(7) 等级:错误日志 信息: modbus readDataFromSocketE ok skid: 11 ret:23 expRxLen:23 

2025/9/30 14:00:45.461:Tag: 单相智能电表7(7) 等级:接收报文 信息:07 03 12 4a 6a 02 d9 00 00 05 64 00 00 05 6a 00 00 00 5b 00 00 a8 ba
2025/9/30 14:00:45.465:Tag: 单相智能电表8(8) 等级:发送报文 信息:08 03 00 02 00 09 24 95
2025/9/30 14:00:45.469:Tag: 单相智能电表8(8) 等级:信息日志 信息: modbus-> sendDataToSocket ok skid: 11 ret:8 m_bufLen:8 

2025/9/30 14:00:45.779:Tag: 单相智能电表8(8) 等级:错误日志 信息: modbus readDataFromSocketE ok skid: 11 ret:23 expRxLen:23 

2025/9/30 14:00:45.783:Tag: 单相智能电表8(8) 等级:接收报文 信息:08 03 12 4a ae 08 18 00 00 0a 83 00 00 0f 73 00 00 07 a3 00 00 13 d7
2025/9/30 14:00:45.787:Tag: 单相智能电表9(9) 等级:发送报文 信息:09 03 00 02 00 09 25 44
2025/9/30 14:00:45.792:Tag: 单相智能电表9(9) 等级:信息日志 信息: modbus-> sendDataToSocket ok skid: 11 ret:8 m_bufLen:8 

2025/9/30 14:00:46.053:Tag: 单相智能电表9(9) 等级:错误日志 信息: modbus readDataFromSocketE ok skid: 11 ret:23 expRxLen:23 

2025/9/30 14:00:46.057:Tag: 单相智能电表9(9) 等级:接收报文 信息:09 03 12 44 e3 0e 5b 00 00 10 ea 00 00 19 47 00 00 0c ef 00 00 7a 55

2025/9/30 14:00:46.062:Tag: 可控调压2(22) 等级:发送控制命令报文 信息:16 06 00 01 00 40 da dd
2025/9/30 14:00:46.372:Tag: 可控调压2(22) 等级:接收控制命令报文返回 信息:16 06 00 01 00 40 da dd
2025/9/30 14:00:46.376:Tag: 可控调压3(23) 等级:发送控制命令报文 信息:17 06 00 01 00 47 9a ce
2025/9/30 14:00:46.687:Tag: 可控调压3(23) 等级:接收控制命令报文返回 信息:17 06 00 01 00 47 9a ce
2025/9/30 14:00:46.691:Tag: 三相智能电表1（线路阻抗柜端口2）(51) 等级:发送报文 信息:33 03 00 0a 00 22 e1 c3
2025/9/30 14:00:46.695:Tag: 三相智能电表1（线路阻抗柜端口2）(51) 等级:信息日志 信息: modbus-> sendDataToSocket ok skid: 11 ret:8 m_bufLen:8 

2025/9/30 14:00:47.005:Tag: 三相智能电表1（线路阻抗柜端口2）(51) 等级:错误日志 信息: modbus readDataFromSocketE ok skid: 11 ret:73 expRxLen:73 

2025/9/30 14:00:47.009:Tag: 三相智能电表1（线路阻抗柜端口2）(51) 等级:接收报文 信息:33 03 44 43 4b 9b 54 43 4d 47 3d 43 4e 80 e0 43 b1 0d 8b 43 b2 4e 95 43 b1 95 9a 41 0a 6f 27 40 a4 9e 18 40 3a f9 b3 44 aa bf 48 44 61 9a 20 44 07 3a 44 45 2f 94 bd 44 80 df e8 43 fb 10 f9 43 7c 6b 31 44 df 31 8c 46 54
2025/9/30 14:00:47.014:Tag: 三相智能电表2（线路阻抗柜端口4）(52) 等级:发送报文 信息:34 03 00 0a 00 22 e0 74

2025/9/30 14:00:47.019:Tag: 三相智能电表2（线路阻抗柜端口4）(52) 等级:信息日志 信息: modbus-> sendDataToSocket ok skid: 11 ret:8 m_bufLen:8 

2025/9/30 14:00:47.228:Tag: 线路阻抗模拟柜(1543468) 等级:接收报文 信息:05 58 00 00 00 af 01 03 ac 43 58 f0 25 43 59 39 7b 43 59 b2 9f 43 bb ff 78 43 bc 53 b0 43 bc 33 f2 41 5e 67 c4 41 61 70 b9 41 4f a7 fa 40 16 33 78 40 1b 21 85 40 14 12 a0 40 e2 b3 cf 3f f2 5e cc 3f ef 35 6e 3f cf 94 06 40 ac 4a 10 00 00 00 00 00 00 00 00 00 00 00 00 41 0e 6c f6 3f 4b bd a1 42 48 00 00 43 bc 53 b0 41 61 70 b9 40 1b 21 85 43 33 3f 94 43 37 60 ba 43 43 13 37 43 9d 06 70 43 a3 e6 a8 43 a2 22 94 3f 08 d9 db 3f 17 27 2b 3f 0b e8 72 3d 82 32 89 3d 8d 81 16 3d 86 9c bb 3e 4b 28 2c 3d 92 d5 1c 3d aa b9 d8 3d ab e8 43 3e 74 bb 9b
2025/9/30 14:00:47.234:Tag: 线路阻抗模拟柜(1543468) 等级:发送报文 信息:05 59 00 00 00 06 01 03 00 87 00 56
2025/9/30 14:00:47.238:Tag: 线路阻抗模拟柜(1543468) 等级:信息日志 信息: modbus-> sendDataToSocket ok skid: 12 ret:12 m_bufLen:12 

2025/9/30 14:00:47.294:Tag: 三相智能电表2（线路阻抗柜端口4）(52) 等级:错误日志 信息: modbus readDataFromSocketE ok skid: 11 ret:73 expRxLen:73 


2025/9/30 14:00:47.299:Tag: 三相智能电表2（线路阻抗柜端口4）(52) 等级:接收报文 信息:34 03 44 43 39 17 67 43 44 0d d0 43 49 ec 24 43 a5 10 44 43 ac 55 c7 43 a7 a2 7e 40 d3 71 b2 40 45 5b 9c 3f 07 64 bf 44 65 23 ca 43 f4 51 2c 42 84 26 a2 44 b7 e8 9a 44 31 80 f7 43 8a e3 71 42 64 b4 08 44 82 9e f8 31 6c
2025/9/30 14:00:47.304:Tag: 三相智能电表3（线路阻抗柜端口5）(53) 等级:发送报文 信息:35 03 00 0a 00 22 e1 a5
2025/9/30 14:00:47.308:Tag: 三相智能电表3（线路阻抗柜端口5）(53) 等级:信息日志 信息: modbus-> sendDataToSocket ok skid: 11 ret:8 m_bufLen:8 

2025/9/30 14:00:47.619:Tag: 三相智能电表3（线路阻抗柜端口5）(53) 等级:错误日志 信息: modbus readDataFromSocketE ok skid: 11 ret:73 expRxLen:73 

2025/9/30 14:00:47.624:Tag: 三相智能电表3（线路阻抗柜端口5）(53) 等级:接收报文 信息:35 03 44 43 31 68 92 43 40 95 d5 43 49 69 4c 43 a0 41 c6 43 aa 9e ac 43 a4 24 bc 40 43 80 74 3f 95 ee af 3f 08 a8 3b 43 d5 45 14 43 55 23 96 42 83 f7 fb 44 30 6a 6f 43 82 98 91 42 80 c2 c5 42 67 21 10 43 bf ad 64 94 0a
2025/9/30 14:00:47.629:Tag: 三相智能电表4（线路阻抗柜端口7）(54) 等级:发送报文 信息:36 03 00 0a 00 22 e1 96
2025/9/30 14:00:47.633:Tag: 三相智能电表4（线路阻抗柜端口7）(54) 等级:信息日志 信息: modbus-> sendDataToSocket ok skid: 11 ret:8 m_bufLen:8 


2025/9/30 14:00:47.944:Tag: 三相智能电表4（线路阻抗柜端口7）(54) 等级:错误日志 信息: modbus readDataFromSocketE ok skid: 11 ret:73 expRxLen:73 

2025/9/30 14:00:47.948:Tag: 三相智能电表4（线路阻抗柜端口7）(54) 等级:接收报文 信息:36 03 44 43 2e 2b d7 43 3f 4b 93 43 48 df 3a 43 9e 4f 3c 43 a9 d4 8b 43 a2 89 1e 40 36 a6 5c 3f 0e de c0 3f 08 f4 ff c3 c5 59 ee c2 91 b4 a6 c2 7f da f4 c4 04 e1 3a c3 5b 59 74 c2 62 d4 66 c2 72 62 c2 c3 a8 53 9f 74 f6
2025/9/30 14:00:47.953:Tag: 三相智能电表5(55) 等级:发送报文 信息:37 03 00 00 00 22 c0 45
2025/9/30 14:00:47.957:Tag: 三相智能电表5(55) 等级:信息日志 信息: modbus-> sendDataToSocket ok skid: 11 ret:8 m_bufLen:8 

2025/9/30 14:00:48.268:Tag: 三相智能电表5(55) 等级:错误日志 信息: modbus readDataFromSocketE ok skid: 11 ret:73 expRxLen:73 

2025/9/30 14:00:48.272:Tag: 三相智能电表5(55) 等级:接收报文 信息:37 03 44 66 66 43 38 66 66 43 43 80 00 43 48 73 33 43 a3 99 9a 43 aa 80 00 43 a8 24 dd 40 26 6e 98 40 52 39 58 40 34 bc 6a 3e f4 5a 1d 3f 24 48 17 3f 10 8d 50 3f d7 d2 89 3c de 6f 00 3d 01 43 96 3d 0b df a4 3d be c5 9b
2025/9/30 14:00:48.277:Tag: 三相智能电表6(56) 等级:发送报文 信息:38 03 00 00 00 22 c0 ba

2025/9/30 14:00:48.282:Tag: 三相智能电表6(56) 等级:信息日志 信息: modbus-> sendDataToSocket ok skid: 11 ret:8 m_bufLen:8 

2025/9/30 14:00:48.541:Tag: 三相智能电表6(56) 等级:错误日志 信息: modbus readDataFromSocketE ok skid: 11 ret:73 expRxLen:73 

2025/9/30 14:00:48.544:Tag: 三相智能电表6(56) 等级:接收报文 信息:38 03 44 00 00 00 00 00 00 00 00 00 00 00 00 00 00 00 00 00 00 00 00 00 00 00 00 00 00 00 00 00 00 00 00 00 00 00 00 00 00 00 00 00 00 00 00 00 00 00 00 00 00 00 00 00 00 00 00 00 00 00 00 00 00 00 00 00 00 00 00 aa a2
2025/9/30 14:00:48.548:Tag: 单相智能电表1(1) 等级:发送报文 信息:01 03 00 02 00 09 24 0c
2025/9/30 14:00:48.552:Tag: 单相智能电表1(1) 等级:信息日志 信息: modbus-> sendDataToSocket ok skid: 11 ret:8 m_bufLen:8 

2025/9/30 14:00:48.864:Tag: 单相智能电表1(1) 等级:错误日志 信息: modbus readDataFromSocketE ok skid: 11 ret:23 expRxLen:23 

2025/9/30 14:00:48.868:Tag: 单相智能电表1(1) 等级:接收报文 信息:01 03 12 4e 36 03 d5 00 00 07 b3 00 00 07 a9 00 00 00 02 00 00 52 dc
2025/9/30 14:00:48.872:Tag: 单相智能电表2(2) 等级:发送报文 信息:02 03 00 02 00 09 24 3f
2025/9/30 14:00:48.877:Tag: 单相智能电表2(2) 等级:信息日志 信息: modbus-> sendDataToSocket ok skid: 11 ret:8 m_bufLen:8 


2025/9/30 14:00:49.186:Tag: 单相智能电表2(2) 等级:错误日志 信息: modbus readDataFromSocketE ok skid: 11 ret:23 expRxLen:23 

2025/9/30 14:00:49.191:Tag: 单相智能电表2(2) 等级:接收报文 信息:02 03 12 4e 13 11 fa 00 00 1a c8 00 00 23 e4 00 00 0f c6 00 00 f7 0a
2025/9/30 14:00:49.195:Tag: 单相智能电表3(3) 等级:发送报文 信息:03 03 00 02 00 09 25 ee
2025/9/30 14:00:49.199:Tag: 单相智能电表3(3) 等级:信息日志 信息: modbus-> sendDataToSocket ok skid: 11 ret:8 m_bufLen:8 

2025/9/30 14:00:49.460:Tag: 单相智能电表3(3) 等级:错误日志 信息: modbus readDataFromSocketE ok skid: 11 ret:23 expRxLen:23 

2025/9/30 14:00:49.464:Tag: 单相智能电表3(3) 等级:接收报文 信息:03 03 12 4e 80 07 b1 00 00 04 e8 00 00 0f 70 00 00 08 f0 00 00 4b 49
2025/9/30 14:00:49.467:Tag: 单相智能电表4(4) 等级:发送报文 信息:04 03 00 02 00 09 24 59
2025/9/30 14:00:49.471:Tag: 单相智能电表4(4) 等级:信息日志 信息: modbus-> sendDataToSocket ok skid: 11 ret:8 m_bufLen:8 

2025/9/30 14:00:49.783:Tag: 单相智能电表4(4) 等级:错误日志 信息: modbus readDataFromSocketE ok skid: 11 ret:23 expRxLen:23 

2025/9/30 14:00:49.787:Tag: 单相智能电表4(4) 等级:接收报文 信息:04 03 12 4f b1 0c 80 00 00 14 42 00 00 19 77 00 00 0a 07 00 00 3a 37

2025/9/30 14:00:49.792:Tag: 单相智能电表5(5) 等级:发送报文 信息:05 03 00 02 00 09 25 88
2025/9/30 14:00:49.796:Tag: 单相智能电表5(5) 等级:信息日志 信息: modbus-> sendDataToSocket ok skid: 11 ret:8 m_bufLen:8 

2025/9/30 14:00:50.104:Tag: 单相智能电表5(5) 等级:错误日志 信息: modbus readDataFromSocketE ok skid: 11 ret:23 expRxLen:23 

2025/9/30 14:00:50.108:Tag: 单相智能电表5(5) 等级:接收报文 信息:05 03 12 4e ad 0b 7f 00 00 11 30 00 00 17 20 00 00 0a 1c 00 00 34 95
2025/9/30 14:00:50.112:Tag: 单相智能电表6(6) 等级:发送报文 信息:06 03 00 02 00 09 25 bb
2025/9/30 14:00:50.116:Tag: 单相智能电表6(6) 等级:信息日志 信息: modbus-> sendDataToSocket ok skid: 11 ret:8 m_bufLen:8 

2025/9/30 14:00:50.222:Tag: 可控三项负载柜(1543484) 等级:接收报文 信息:05 5b 00 00 00 47 01 03 44 43 42 7f e5 43 48 41 b4 43 4b bd 10 43 aa f0 c6 43 ae ef ed 43 ac 75 27 3f a7 84 5f 3f ad 52 3d 3f b2 f0 11 3e 54 ae e8 3e 61 98 f7 3e 6c 45 fb 3f 28 a3 76 3e 12 af 7d 3e 1f 0f 0f 3e 27 46 6d 3e ec 82 7d
2025/9/30 14:00:50.229:Tag: 可控三项负载柜(1543484) 等级:发送报文 信息:05 5c 00 00 00 06 01 03 00 96 00 22
2025/9/30 14:00:50.233:Tag: 可控三项负载柜(1543484) 等级:信息日志 信息: modbus-> sendDataToSocket ok skid: 10 ret:12 m_bufLen:12 


2025/9/30 14:00:50.391:Tag: 单相智能电表6(6) 等级:错误日志 信息: modbus readDataFromSocketE ok skid: 11 ret:23 expRxLen:23 

2025/9/30 14:00:50.395:Tag: 单相智能电表6(6) 等级:接收报文 信息:06 03 12 4e e9 0b c6 00 00 12 0e 00 00 17 c1 00 00 0a 11 00 00 a2 e0
2025/9/30 14:00:50.399:Tag: 单相智能电表7(7) 等级:发送报文 信息:07 03 00 02 00 09 24 6a
2025/9/30 14:00:50.403:Tag: 单相智能电表7(7) 等级:信息日志 信息: modbus-> sendDataToSocket ok skid: 11 ret:8 m_bufLen:8 

2025/9/30 14:00:50.715:Tag: 单相智能电表7(7) 等级:错误日志 信息: modbus readDataFromSocketE ok skid: 11 ret:23 expRxLen:23 

2025/9/30 14:00:50.718:Tag: 单相智能电表7(7) 等级:接收报文 信息:07 03 12 4a 72 02 d4 00 00 05 5c 00 00 05 61 00 00 00 58 00 00 70 18
2025/9/30 14:00:50.722:Tag: 单相智能电表8(8) 等级:发送报文 信息:08 03 00 02 00 09 24 95
2025/9/30 14:00:50.725:Tag: 单相智能电表8(8) 等级:信息日志 信息: modbus-> sendDataToSocket ok skid: 11 ret:8 m_bufLen:8 

2025/9/30 14:00:51.035:Tag: 单相智能电表8(8) 等级:错误日志 信息: modbus readDataFromSocketE ok skid: 11 ret:23 expRxLen:23 

2025/9/30 14:00:51.039:Tag: 单相智能电表8(8) 等级:接收报文 信息:08 03 12 4a b6 08 18 00 00 0a 82 00 00 0f 74 00 00 07 a5 00 00 0b ed

2025/9/30 14:00:51.043:Tag: 单相智能电表9(9) 等级:发送报文 信息:09 03 00 02 00 09 25 44
2025/9/30 14:00:51.047:Tag: 单相智能电表9(9) 等级:信息日志 信息: modbus-> sendDataToSocket ok skid: 11 ret:8 m_bufLen:8 

2025/9/30 14:00:51.355:Tag: 单相智能电表9(9) 等级:错误日志 信息: modbus readDataFromSocketE ok skid: 11 ret:23 expRxLen:23 

2025/9/30 14:00:51.359:Tag: 单相智能电表9(9) 等级:接收报文 信息:09 03 12 44 ed 0e 59 00 00 10 e8 00 00 19 48 00 00 0c f1 00 00 08 89
2025/9/30 14:00:51.363:Tag: 三相智能电表1（线路阻抗柜端口2）(51) 等级:发送报文 信息:33 03 00 0a 00 22 e1 c3
2025/9/30 14:00:51.367:Tag: 三相智能电表1（线路阻抗柜端口2）(51) 等级:信息日志 信息: modbus-> sendDataToSocket ok skid: 11 ret:8 m_bufLen:8 

2025/9/30 14:00:51.678:Tag: 三相智能电表1（线路阻抗柜端口2）(51) 等级:错误日志 信息: modbus readDataFromSocketE ok skid: 11 ret:73 expRxLen:73 

2025/9/30 14:00:51.682:Tag: 三相智能电表1（线路阻抗柜端口2）(51) 等级:接收报文 信息:33 03 44 43 4b a9 76 43 4d 5e 23 43 4e 8b e4 43 b1 1d 96 43 b2 5d 44 43 b1 a0 7e 41 0a 75 1d 40 a4 e9 42 40 3a e8 98 44 aa ef ff 44 61 f3 bd 44 07 63 78 45 2f cd cd 44 81 06 fe 43 fb b1 4e 43 7c 38 13 44 df 7a 54 6f 2c

2025/9/30 14:00:51.686:Tag: 三相智能电表2（线路阻抗柜端口4）(52) 等级:发送报文 信息:34 03 00 0a 00 22 e0 74
2025/9/30 14:00:51.690:Tag: 三相智能电表2（线路阻抗柜端口4）(52) 等级:信息日志 信息: modbus-> sendDataToSocket ok skid: 11 ret:8 m_bufLen:8 

2025/9/30 14:00:51.999:Tag: 三相智能电表2（线路阻抗柜端口4）(52) 等级:错误日志 信息: modbus readDataFromSocketE ok skid: 11 ret:73 expRxLen:73 

2025/9/30 14:00:52.003:Tag: 三相智能电表2（线路阻抗柜端口4）(52) 等级:接收报文 信息:34 03 44 43 39 1f c3 43 43 f5 5a 43 49 dc 14 43 a5 09 29 43 ac 44 40 43 a7 9f 00 40 d3 4e ef 40 45 4a c5 3f 07 79 e8 44 64 c0 8e 43 f4 4b 70 42 82 ea fc 44 b7 a1 d3 44 31 ad 1e 43 8a e1 49 42 66 46 d5 44 82 c1 18 3e 81
2025/9/30 14:00:52.008:Tag: 三相智能电表3（线路阻抗柜端口5）(53) 等级:发送报文 信息:35 03 00 0a 00 22 e1 a5
2025/9/30 14:00:52.012:Tag: 三相智能电表3（线路阻抗柜端口5）(53) 等级:信息日志 信息: modbus-> sendDataToSocket ok skid: 11 ret:8 m_bufLen:8 

2025/9/30 14:00:52.220:Tag: 线路阻抗模拟柜(1543468) 等级:接收报文 信息:05 59 00 00 00 af 01 03 ac 43 58 ca c2 43 59 1e 98 43 59 79 5f 43 bb e3 a4 43 bc 2f 40 43 bc 0a f7 41 5d 2f 46 41 60 3c 5e 41 4f 13 fc 40 14 94 1f 40 19 f4 c0 40 13 3a 8c 40 e0 e1 b5 3f f2 98 be 3f ee 84 9e 3f cf 95 b7 40 ac 2c c5 00 00 00 00 00 00 00 00 00 00 00 00 41 0d ab d1 3f 4b 2e 46 42 47 f0 a5 43 bc 2f 40 41 60 3c 5e 40 19 f4 c0 43 33 20 46 43 36 e3 5a 43 42 a8 7c 43 9c c2 72 43 a3 82 40 43 a1 e6 5e 3f 08 63 ba 3f 15 de bc 3f 0b b5 7e 3d 81 d8 44 3d 8c 77 b9 3d 85 83 3c 3e 49 e9 9b 3d 92 15 0f 3d a8 60 60 3d ab c7 ba 3e 73 1e 94

2025/9/30 14:00:52.225:Tag: 线路阻抗模拟柜(1543468) 等级:发送报文 信息:05 5a 00 00 00 06 01 03 00 87 00 56
2025/9/30 14:00:52.229:Tag: 线路阻抗模拟柜(1543468) 等级:信息日志 信息: modbus-> sendDataToSocket ok skid: 12 ret:12 m_bufLen:12 

2025/9/30 14:00:52.284:Tag: 三相智能电表3（线路阻抗柜端口5）(53) 等级:错误日志 信息: modbus readDataFromSocketE ok skid: 11 ret:73 expRxLen:73 

2025/9/30 14:00:52.297:Tag: 三相智能电表3（线路阻抗柜端口5）(53) 等级:接收报文 信息:35 03 44 43 31 a6 d9 43 40 d8 e6 43 49 a0 7b 43 a0 79 ca 43 aa d3 90 43 a4 57 80 40 43 58 0b 3f 95 c1 2d 3f 09 01 73 43 d4 a8 5b 43 54 e3 de 42 84 b5 b2 44 30 23 dc 43 82 dc a2 42 81 32 83 42 68 2d 96 43 c0 2e f5 2f 22
2025/9/30 14:00:52.302:Tag: 三相智能电表4（线路阻抗柜端口7）(54) 等级:发送报文 信息:36 03 00 0a 00 22 e1 96
2025/9/30 14:00:52.306:Tag: 三相智能电表4（线路阻抗柜端口7）(54) 等级:信息日志 信息: modbus-> sendDataToSocket ok skid: 11 ret:8 m_bufLen:8 

2025/9/30 14:00:52.616:Tag: 三相智能电表4（线路阻抗柜端口7）(54) 等级:错误日志 信息: modbus readDataFromSocketE ok skid: 11 ret:73 expRxLen:73 

2025/9/30 14:00:52.621:Tag: 三相智能电表4（线路阻抗柜端口7）(54) 等级:接收报文 信息:36 03 44 43 2e 4f f6 43 3f 5a 4f 43 48 fc 17 43 9e 65 1b 43 a9 e7 78 43 a2 a5 28 40 36 c0 b6 3f 0f 1d 8f 3f 09 60 51 c3 c5 8c ce c2 92 08 ba c2 80 1a d9 c4 05 0a da c3 5c b0 00 c2 62 dd 04 c2 70 ba db c3 a8 ca fc 0c b1

2025/9/30 14:00:52.627:Tag: 三相智能电表5(55) 等级:发送报文 信息:37 03 00 00 00 22 c0 45
2025/9/30 14:00:52.632:Tag: 三相智能电表5(55) 等级:信息日志 信息: modbus-> sendDataToSocket ok skid: 11 ret:8 m_bufLen:8 

2025/9/30 14:00:52.892:Tag: 三相智能电表5(55) 等级:错误日志 信息: modbus readDataFromSocketE ok skid: 11 ret:73 expRxLen:73 

2025/9/30 14:00:52.896:Tag: 三相智能电表5(55) 等级:接收报文 信息:37 03 44 66 66 43 38 66 66 43 43 80 00 43 48 80 00 43 a3 99 9a 43 aa 80 00 43 a8 24 dd 40 26 6e 98 40 52 39 58 40 34 bc 6a 3e f4 5a 1d 3f 24 48 17 3f 10 8d 50 3f d7 d2 89 3c de 6f 00 3d 01 e7 04 3d 0c df a4 3d be 35 59
2025/9/30 14:00:52.901:Tag: 三相智能电表6(56) 等级:发送报文 信息:38 03 00 00 00 22 c0 ba
2025/9/30 14:00:52.905:Tag: 三相智能电表6(56) 等级:信息日志 信息: modbus-> sendDataToSocket ok skid: 11 ret:8 m_bufLen:8 

2025/9/30 14:00:53.214:Tag: 三相智能电表6(56) 等级:错误日志 信息: modbus readDataFromSocketE ok skid: 11 ret:73 expRxLen:73 

2025/9/30 14:00:53.218:Tag: 三相智能电表6(56) 等级:接收报文 信息:38 03 44 00 00 00 00 00 00 00 00 00 00 00 00 00 00 00 00 00 00 00 00 00 00 00 00 00 00 00 00 00 00 00 00 00 00 00 00 00 00 00 00 00 00 00 00 00 00 00 00 00 00 00 00 00 00 00 00 00 00 00 00 00 00 00 00 00 00 00 00 aa a2

2025/9/30 14:00:53.224:Tag: 单相智能电表1(1) 等级:发送报文 信息:01 03 00 02 00 09 24 0c
2025/9/30 14:00:53.228:Tag: 单相智能电表1(1) 等级:信息日志 信息: modbus-> sendDataToSocket ok skid: 11 ret:8 m_bufLen:8 

2025/9/30 14:00:53.536:Tag: 单相智能电表1(1) 等级:错误日志 信息: modbus readDataFromSocketE ok skid: 11 ret:23 expRxLen:23 

2025/9/30 14:00:53.540:Tag: 单相智能电表1(1) 等级:接收报文 信息:01 03 12 4e 32 03 d5 00 00 07 b2 00 00 07 a9 00 00 00 02 00 00 14 e1
2025/9/30 14:00:53.544:Tag: 单相智能电表2(2) 等级:发送报文 信息:02 03 00 02 00 09 24 3f
2025/9/30 14:00:53.548:Tag: 单相智能电表2(2) 等级:信息日志 信息: modbus-> sendDataToSocket ok skid: 11 ret:8 m_bufLen:8 

2025/9/30 14:00:53.859:Tag: 单相智能电表2(2) 等级:错误日志 信息: modbus readDataFromSocketE ok skid: 11 ret:23 expRxLen:23 

2025/9/30 14:00:53.862:Tag: 单相智能电表2(2) 等级:接收报文 信息:02 03 12 4e 10 11 fa 00 00 1a c8 00 00 23 e3 00 00 0f c5 00 00 81 3a
2025/9/30 14:00:53.865:Tag: 单相智能电表3(3) 等级:发送报文 信息:03 03 00 02 00 09 25 ee
2025/9/30 14:00:53.868:Tag: 单相智能电表3(3) 等级:信息日志 信息: modbus-> sendDataToSocket ok skid: 11 ret:8 m_bufLen:8 


2025/9/30 14:00:54.175:Tag: 单相智能电表3(3) 等级:错误日志 信息: modbus readDataFromSocketE ok skid: 11 ret:23 expRxLen:23 

2025/9/30 14:00:54.179:Tag: 单相智能电表3(3) 等级:接收报文 信息:03 03 12 4e 80 07 b3 00 00 04 e9 00 00 0f 73 00 00 08 f1 00 00 af 74
2025/9/30 14:00:54.183:Tag: 单相智能电表4(4) 等级:发送报文 信息:04 03 00 02 00 09 24 59
2025/9/30 14:00:54.187:Tag: 单相智能电表4(4) 等级:信息日志 信息: modbus-> sendDataToSocket ok skid: 11 ret:8 m_bufLen:8 

2025/9/30 14:00:54.446:Tag: 单相智能电表4(4) 等级:错误日志 信息: modbus readDataFromSocketE ok skid: 11 ret:23 expRxLen:23 

2025/9/30 14:00:54.450:Tag: 单相智能电表4(4) 等级:接收报文 信息:04 03 12 4f b8 0c 82 00 00 14 48 00 00 19 7d 00 00 0a 09 00 00 84 7f
2025/9/30 14:00:54.454:Tag: 单相智能电表5(5) 等级:发送报文 信息:05 03 00 02 00 09 25 88
2025/9/30 14:00:54.458:Tag: 单相智能电表5(5) 等级:信息日志 信息: modbus-> sendDataToSocket ok skid: 11 ret:8 m_bufLen:8 

2025/9/30 14:00:54.770:Tag: 单相智能电表5(5) 等级:错误日志 信息: modbus readDataFromSocketE ok skid: 11 ret:23 expRxLen:23 

2025/9/30 14:00:54.774:Tag: 单相智能电表5(5) 等级:接收报文 信息:05 03 12 4e b4 0b 7f 00 00 11 2f 00 00 17 21 00 00 0a 1e 00 00 3a d6

2025/9/30 14:00:54.778:Tag: 单相智能电表6(6) 等级:发送报文 信息:06 03 00 02 00 09 25 bb
2025/9/30 14:00:54.782:Tag: 单相智能电表6(6) 等级:信息日志 信息: modbus-> sendDataToSocket ok skid: 11 ret:8 m_bufLen:8 

2025/9/30 14:00:55.093:Tag: 单相智能电表6(6) 等级:错误日志 信息: modbus readDataFromSocketE ok skid: 11 ret:23 expRxLen:23 

2025/9/30 14:00:55.097:Tag: 单相智能电表6(6) 等级:接收报文 信息:06 03 12 4e f2 0b c8 00 00 12 12 00 00 17 c7 00 00 0a 13 00 00 fa 43
2025/9/30 14:00:55.101:Tag: 单相智能电表7(7) 等级:发送报文 信息:07 03 00 02 00 09 24 6a
2025/9/30 14:00:55.105:Tag: 单相智能电表7(7) 等级:信息日志 信息: modbus-> sendDataToSocket ok skid: 11 ret:8 m_bufLen:8 

2025/9/30 14:00:55.262:Tag: 可控三项负载柜(1543484) 等级:接收报文 信息:05 5c 00 00 00 47 01 03 44 43 42 6d e6 43 48 63 01 43 4b a0 17 43 aa f7 83 43 ae f1 ba 43 ac 60 c8 3f a7 58 86 3f ad 44 7b 3f b2 ec 56 3e 53 de b5 3e 63 5e 7c 3e 6d 2c ed 3f 29 1a 87 3e 13 10 57 3e 20 29 20 3e 25 7b f7 3e ec 5a b8
2025/9/30 14:00:55.267:Tag: 可控三项负载柜(1543484) 等级:发送报文 信息:05 5d 00 00 00 06 01 03 00 96 00 22
2025/9/30 14:00:55.271:Tag: 可控三项负载柜(1543484) 等级:信息日志 信息: modbus-> sendDataToSocket ok skid: 10 ret:12 m_bufLen:12 


2025/9/30 14:00:55.377:Tag: 单相智能电表7(7) 等级:错误日志 信息: modbus readDataFromSocketE ok skid: 11 ret:23 expRxLen:23 

2025/9/30 14:00:55.380:Tag: 单相智能电表7(7) 等级:接收报文 信息:07 03 12 4a 81 02 d7 00 00 05 63 00 00 05 69 00 00 00 5a 00 00 60 ce
2025/9/30 14:00:55.384:Tag: 单相智能电表8(8) 等级:发送报文 信息:08 03 00 02 00 09 24 95
2025/9/30 14:00:55.387:Tag: 单相智能电表8(8) 等级:信息日志 信息: modbus-> sendDataToSocket ok skid: 11 ret:8 m_bufLen:8 

2025/9/30 14:00:55.697:Tag: 单相智能电表8(8) 等级:错误日志 信息: modbus readDataFromSocketE ok skid: 11 ret:23 expRxLen:23 

2025/9/30 14:00:55.701:Tag: 单相智能电表8(8) 等级:接收报文 信息:08 03 12 4a c5 08 19 00 00 0a 85 00 00 0f 7a 00 00 07 a8 00 00 7b b1
2025/9/30 14:00:55.705:Tag: 单相智能电表9(9) 等级:发送报文 信息:09 03 00 02 00 09 25 44
