2025/10/20 10:59:59.445:Tag: 单相智能电表1(1) 等级:发送报文 信息:01 03 00 02 00 09 24 0c
2025/10/20 10:59:59.449:Tag: 单相智能电表1(1) 等级:信息日志 信息: modbus-> sendDataToSocket ok skid: 11 ret:8 m_bufLen:8 

2025/10/20 10:59:59.708:Tag: 单相智能电表1(1) 等级:错误日志 信息: modbus readDataFromSocketE ok skid: 11 ret:23 expRxLen:23 

2025/10/20 10:59:59.712:Tag: 单相智能电表1(1) 等级:接收报文 信息:01 03 12 4f 84 03 e5 00 00 07 f3 00 00 07 ea 00 00 00 02 00 00 c0 b6
2025/10/20 10:59:59.716:Tag: 单相智能电表2(2) 等级:发送报文 信息:02 03 00 02 00 09 24 3f
2025/10/20 10:59:59.721:Tag: 单相智能电表2(2) 等级:信息日志 信息: modbus-> sendDataToSocket ok skid: 11 ret:8 m_bufLen:8 

2025/10/20 11:00:00.030:Tag: 单相智能电表2(2) 等级:错误日志 信息: modbus readDataFromSocketE ok skid: 11 ret:23 expRxLen:23 

2025/10/20 11:00:00.034:Tag: 单相智能电表2(2) 等级:接收报文 信息:02 03 12 4f 7c 12 5e 00 00 1b e1 00 00 25 55 00 00 10 2b 00 00 91 ce
2025/10/20 11:00:00.038:Tag: 单相智能电表3(3) 等级:发送报文 信息:03 03 00 02 00 09 25 ee
2025/10/20 11:00:00.042:Tag: 单相智能电表3(3) 等级:信息日志 信息: modbus-> sendDataToSocket ok skid: 11 ret:8 m_bufLen:8 


2025/10/20 11:00:00.150:Tag: 可控三项负载柜(1543484) 等级:接收报文 信息:0a 6d 00 00 00 47 01 03 44 43 46 bd c2 43 4b fd f8 43 4f 4b 3c 43 ae 64 c2 43 b2 18 0e 43 af d4 d4 3f ab b3 0c 3f b1 52 ce 3f b5 ef f2 3e 5e 18 94 3e 6a b3 f6 3e 73 b4 85 3f 2f 20 44 3e 1b 1b ae 3e 25 de 44 3e 2d bc 1a 3e f7 5b 06
2025/10/20 11:00:00.155:Tag: 可控三项负载柜(1543484) 等级:发送报文 信息:0a 6e 00 00 00 06 01 03 00 96 00 22
2025/10/20 11:00:00.159:Tag: 可控三项负载柜(1543484) 等级:信息日志 信息: modbus-> sendDataToSocket ok skid: 10 ret:12 m_bufLen:12 

2025/10/20 11:00:00.366:Tag: 单相智能电表3(3) 等级:错误日志 信息: modbus readDataFromSocketE ok skid: 11 ret:23 expRxLen:23 

2025/10/20 11:00:00.370:Tag: 单相智能电表3(3) 等级:接收报文 信息:03 03 12 4f cf 08 47 00 00 05 aa 00 00 10 e4 00 00 09 d8 00 00 9b eb
2025/10/20 11:00:00.374:Tag: 单相智能电表4(4) 等级:发送报文 信息:04 03 00 02 00 09 24 59
2025/10/20 11:00:00.379:Tag: 单相智能电表4(4) 等级:信息日志 信息: modbus-> sendDataToSocket ok skid: 11 ret:8 m_bufLen:8 

2025/10/20 11:00:00.639:Tag: 单相智能电表4(4) 等级:错误日志 信息: modbus readDataFromSocketE ok skid: 11 ret:23 expRxLen:23 


2025/10/20 11:00:00.644:Tag: 单相智能电表4(4) 等级:接收报文 信息:04 03 12 51 25 0c 1f 00 00 13 02 00 00 19 24 00 00 0a b7 00 00 6f 75
2025/10/20 11:00:00.648:Tag: 单相智能电表5(5) 等级:发送报文 信息:05 03 00 02 00 09 25 88
2025/10/20 11:00:00.652:Tag: 单相智能电表5(5) 等级:信息日志 信息: modbus-> sendDataToSocket ok skid: 11 ret:8 m_bufLen:8 

2025/10/20 11:00:00.962:Tag: 单相智能电表5(5) 等级:错误日志 信息: modbus readDataFromSocketE ok skid: 11 ret:23 expRxLen:23 

2025/10/20 11:00:00.966:Tag: 单相智能电表5(5) 等级:接收报文 信息:05 03 12 50 01 0b 56 00 00 10 b9 00 00 17 30 00 00 0a 87 00 00 1c 37
2025/10/20 11:00:00.971:Tag: 单相智能电表6(6) 等级:发送报文 信息:06 03 00 02 00 09 25 bb
2025/10/20 11:00:00.975:Tag: 单相智能电表6(6) 等级:信息日志 信息: modbus-> sendDataToSocket ok skid: 11 ret:8 m_bufLen:8 

2025/10/20 11:00:01.284:Tag: 单相智能电表6(6) 等级:错误日志 信息: modbus readDataFromSocketE ok skid: 11 ret:23 expRxLen:23 

2025/10/20 11:00:01.288:Tag: 单相智能电表6(6) 等级:接收报文 信息:06 03 12 50 78 0b b9 00 00 11 e6 00 00 18 1e 00 00 0a 8e 00 00 e1 57
2025/10/20 11:00:01.292:Tag: 单相智能电表7(7) 等级:发送报文 信息:07 03 00 02 00 09 24 6a

2025/10/20 11:00:01.297:Tag: 单相智能电表7(7) 等级:信息日志 信息: modbus-> sendDataToSocket ok skid: 11 ret:8 m_bufLen:8 

2025/10/20 11:00:01.608:Tag: 单相智能电表7(7) 等级:错误日志 信息: modbus readDataFromSocketE ok skid: 11 ret:23 expRxLen:23 

2025/10/20 11:00:01.612:Tag: 单相智能电表7(7) 等级:接收报文 信息:07 03 12 4c 24 02 c3 00 00 05 59 00 00 05 60 00 00 00 43 00 00 69 24
2025/10/20 11:00:01.616:Tag: 单相智能电表8(8) 等级:发送报文 信息:08 03 00 02 00 09 24 95
2025/10/20 11:00:01.620:Tag: 单相智能电表8(8) 等级:信息日志 信息: modbus-> sendDataToSocket ok skid: 11 ret:8 m_bufLen:8 

2025/10/20 11:00:01.878:Tag: 单相智能电表8(8) 等级:错误日志 信息: modbus readDataFromSocketE ok skid: 11 ret:23 expRxLen:23 

2025/10/20 11:00:01.882:Tag: 单相智能电表8(8) 等级:接收报文 信息:08 03 12 4c 73 07 92 00 00 09 32 00 00 0e cc 00 00 07 d4 00 00 1c 80
2025/10/20 11:00:01.886:Tag: 单相智能电表9(9) 等级:发送报文 信息:09 03 00 02 00 09 25 44
2025/10/20 11:00:01.890:Tag: 单相智能电表9(9) 等级:信息日志 信息: modbus-> sendDataToSocket ok skid: 11 ret:8 m_bufLen:8 

2025/10/20 11:00:02.199:Tag: 单相智能电表9(9) 等级:错误日志 信息: modbus readDataFromSocketE ok skid: 11 ret:23 expRxLen:23 


2025/10/20 11:00:02.203:Tag: 单相智能电表9(9) 等级:接收报文 信息:09 03 12 47 06 0c ba 00 00 0d 51 00 00 17 1b 00 00 0d 23 00 00 f3 1f
2025/10/20 11:00:02.208:Tag: 三相智能电表1（线路阻抗柜端口2）(51) 等级:发送报文 信息:33 03 00 0a 00 22 e1 c3
2025/10/20 11:00:02.212:Tag: 三相智能电表1（线路阻抗柜端口2）(51) 等级:信息日志 信息: modbus-> sendDataToSocket ok skid: 11 ret:8 m_bufLen:8 

2025/10/20 11:00:02.216:Tag: 线路阻抗模拟柜(1543468) 等级:接收报文 信息:0a 6b 00 00 00 af 01 03 ac 43 5c 59 49 43 5c a3 fb 43 5d 2c e6 43 be f4 38 43 bf 4f dc 43 bf 2f 89 41 54 05 c5 41 5e ee aa 41 4f f1 17 40 0e f1 cd 40 18 e4 52 40 14 5d 3d 40 de 19 af 3f f0 be 56 3f f7 ab d8 3f d9 8c 15 40 b0 7d 90 00 00 00 00 00 00 00 00 00 00 00 00 41 0d e5 fe 3f 48 58 b0 42 48 0a 3e 43 bf 4f dc 41 5e ee aa 40 18 e4 52 43 37 6e 3c 43 3b d2 f0 43 46 55 c1 43 a0 c2 fe 43 a7 3b 7d 43 a5 59 f1 3f 0c 4a 58 3f 19 2a b7 3f 10 c6 1a 3d 8d 6a bb 3d 99 0e ad 3d 90 94 ea 3e 5b 87 29 3d 95 9c 15 3d ab e0 27 3d b2 80 50 3e 79 fe 46
2025/10/20 11:00:02.221:Tag: 线路阻抗模拟柜(1543468) 等级:发送报文 信息:0a 6c 00 00 00 06 01 03 00 87 00 56

2025/10/20 11:00:02.226:Tag: 线路阻抗模拟柜(1543468) 等级:信息日志 信息: modbus-> sendDataToSocket ok skid: 12 ret:12 m_bufLen:12 

2025/10/20 11:00:02.537:Tag: 三相智能电表1（线路阻抗柜端口2）(51) 等级:错误日志 信息: modbus readDataFromSocketE ok skid: 11 ret:73 expRxLen:73 

2025/10/20 11:00:02.542:Tag: 三相智能电表1（线路阻抗柜端口2）(51) 等级:接收报文 信息:33 03 44 43 4f 76 fa 43 50 fb 5c 43 52 59 4d 43 b4 53 bc 43 b5 93 6a 43 b4 eb 86 41 02 ca 82 40 a0 d1 dc 40 3f 92 04 44 a1 17 9e 44 5d b0 83 44 0d 13 0b 45 2b 3c b2 44 80 32 84 44 00 49 21 43 83 c3 ce 44 e1 48 09 6b 25
2025/10/20 11:00:02.547:Tag: 三相智能电表2（线路阻抗柜端口4）(52) 等级:发送报文 信息:34 03 00 0a 00 22 e0 74
2025/10/20 11:00:02.551:Tag: 三相智能电表2（线路阻抗柜端口4）(52) 等级:信息日志 信息: modbus-> sendDataToSocket ok skid: 11 ret:8 m_bufLen:8 

2025/10/20 11:00:02.861:Tag: 三相智能电表2（线路阻抗柜端口4）(52) 等级:错误日志 信息: modbus readDataFromSocketE ok skid: 11 ret:73 expRxLen:73 

2025/10/20 11:00:02.865:Tag: 三相智能电表2（线路阻抗柜端口4）(52) 等级:接收报文 信息:34 03 44 43 3d d4 11 43 47 f0 ec 43 4d 81 31 43 a8 cb 49 43 af 91 94 43 ab 3a a6 40 c4 9a 82 40 3c 9d b0 3f 0c 70 36 44 51 93 d0 43 e5 3a ca 42 8c 31 15 44 aa db ac 44 34 98 b0 43 8e 7e 53 42 71 e2 d4 44 85 7b 04 10 82

2025/10/20 11:00:02.870:Tag: 三相智能电表3（线路阻抗柜端口5）(53) 等级:发送报文 信息:35 03 00 0a 00 22 e1 a5
2025/10/20 11:00:02.874:Tag: 三相智能电表3（线路阻抗柜端口5）(53) 等级:信息日志 信息: modbus-> sendDataToSocket ok skid: 11 ret:8 m_bufLen:8 

2025/10/20 11:00:03.133:Tag: 三相智能电表3（线路阻抗柜端口5）(53) 等级:错误日志 信息: modbus readDataFromSocketE ok skid: 11 ret:73 expRxLen:73 

2025/10/20 11:00:03.137:Tag: 三相智能电表3（线路阻抗柜端口5）(53) 等级:接收报文 信息:35 03 44 43 36 bd ea 43 44 ab 44 43 4c fd 56 43 a4 53 9c 43 ad ef 8c 43 a7 fc 18 40 47 5b c2 3f 94 5e c7 3f 0e 00 c9 43 dd 5a dc 43 55 e4 84 42 8d 7b 51 44 35 d5 fa 43 84 93 c4 42 7e 55 a6 42 72 5a f7 43 c2 a9 d8 11 5f
2025/10/20 11:00:03.142:Tag: 三相智能电表4（线路阻抗柜端口7）(54) 等级:发送报文 信息:36 03 00 0a 00 22 e1 96
2025/10/20 11:00:03.146:Tag: 三相智能电表4（线路阻抗柜端口7）(54) 等级:信息日志 信息: modbus-> sendDataToSocket ok skid: 11 ret:8 m_bufLen:8 

2025/10/20 11:00:03.455:Tag: 三相智能电表4（线路阻抗柜端口7）(54) 等级:错误日志 信息: modbus readDataFromSocketE ok skid: 11 ret:73 expRxLen:73 

2025/10/20 11:00:03.458:Tag: 三相智能电表4（线路阻抗柜端口7）(54) 等级:接收报文 信息:36 03 44 43 33 14 3e 43 43 a8 4e 43 4c 56 c2 43 a2 51 8f 43 ad 37 93 43 a6 25 19 40 38 b5 1d 3f 11 9d fe 3f 0e d9 35 c3 cb 6d 8c c2 97 76 33 c2 89 d8 9e c4 09 e0 a0 c3 5a ec 8f c2 6a ae 92 c2 7c 5d 3f c3 aa 57 c1 cf c0

2025/10/20 11:00:03.463:Tag: 三相智能电表5(55) 等级:发送报文 信息:37 03 00 00 00 22 c0 45
2025/10/20 11:00:03.466:Tag: 三相智能电表5(55) 等级:信息日志 信息: modbus-> sendDataToSocket ok skid: 11 ret:8 m_bufLen:8 

2025/10/20 11:00:03.776:Tag: 三相智能电表5(55) 等级:错误日志 信息: modbus readDataFromSocketE ok skid: 11 ret:73 expRxLen:73 

2025/10/20 11:00:03.780:Tag: 三相智能电表5(55) 等级:接收报文 信息:37 03 44 19 9a 43 3d 80 00 43 47 19 9a 43 4c b3 33 43 a7 33 33 43 ae 66 66 43 ab 7e fa 40 2a 81 06 40 55 4b c7 40 37 d1 b7 3f 00 4a 8c 3f 2a 81 06 3f 15 5b c0 3f e0 34 d7 3c ef 43 96 3d 0b 18 2b 3d 15 cc cd 3d cc f6 73
2025/10/20 11:00:03.784:Tag: 三相智能电表6(56) 等级:发送报文 信息:38 03 00 00 00 22 c0 ba
2025/10/20 11:00:03.788:Tag: 三相智能电表6(56) 等级:信息日志 信息: modbus-> sendDataToSocket ok skid: 11 ret:8 m_bufLen:8 

2025/10/20 11:00:04.097:Tag: 三相智能电表6(56) 等级:错误日志 信息: modbus readDataFromSocketE ok skid: 11 ret:73 expRxLen:73 

2025/10/20 11:00:04.101:Tag: 三相智能电表6(56) 等级:接收报文 信息:38 03 44 00 00 00 00 00 00 00 00 00 00 00 00 00 00 00 00 00 00 00 00 00 00 00 00 00 00 00 00 00 00 00 00 00 00 00 00 00 00 00 00 00 00 00 00 00 00 00 00 00 00 00 00 00 00 00 00 00 00 00 00 00 00 00 00 00 00 00 00 aa a2

2025/10/20 11:00:04.107:Tag: 单相智能电表1(1) 等级:发送报文 信息:01 03 00 02 00 09 24 0c
2025/10/20 11:00:04.111:Tag: 单相智能电表1(1) 等级:信息日志 信息: modbus-> sendDataToSocket ok skid: 11 ret:8 m_bufLen:8 

2025/10/20 11:00:04.370:Tag: 单相智能电表1(1) 等级:错误日志 信息: modbus readDataFromSocketE ok skid: 11 ret:23 expRxLen:23 

2025/10/20 11:00:04.373:Tag: 单相智能电表1(1) 等级:接收报文 信息:01 03 12 4f 7d 03 e4 00 00 07 f2 00 00 07 e8 00 00 00 02 00 00 b4 eb
2025/10/20 11:00:04.377:Tag: 单相智能电表2(2) 等级:发送报文 信息:02 03 00 02 00 09 24 3f
2025/10/20 11:00:04.380:Tag: 单相智能电表2(2) 等级:信息日志 信息: modbus-> sendDataToSocket ok skid: 11 ret:8 m_bufLen:8 

2025/10/20 11:00:04.688:Tag: 单相智能电表2(2) 等级:错误日志 信息: modbus readDataFromSocketE ok skid: 11 ret:23 expRxLen:23 

2025/10/20 11:00:04.693:Tag: 单相智能电表2(2) 等级:接收报文 信息:02 03 12 4f 67 12 57 00 00 1b ca 00 00 25 3b 00 00 10 24 00 00 13 1e
2025/10/20 11:00:04.698:Tag: 单相智能电表3(3) 等级:发送报文 信息:03 03 00 02 00 09 25 ee
2025/10/20 11:00:04.701:Tag: 单相智能电表3(3) 等级:信息日志 信息: modbus-> sendDataToSocket ok skid: 11 ret:8 m_bufLen:8 


2025/10/20 11:00:05.011:Tag: 单相智能电表3(3) 等级:错误日志 信息: modbus readDataFromSocketE ok skid: 11 ret:23 expRxLen:23 

2025/10/20 11:00:05.014:Tag: 单相智能电表3(3) 等级:接收报文 信息:03 03 12 4f bd 08 3e 00 00 05 9d 00 00 10 cc 00 00 09 c9 00 00 bb 01
2025/10/20 11:00:05.017:Tag: 单相智能电表4(4) 等级:发送报文 信息:04 03 00 02 00 09 24 59
2025/10/20 11:00:05.020:Tag: 单相智能电表4(4) 等级:信息日志 信息: modbus-> sendDataToSocket ok skid: 11 ret:8 m_bufLen:8 

2025/10/20 11:00:05.125:Tag: 可控三项负载柜(1543484) 等级:接收报文 信息:0a 6e 00 00 00 47 01 03 44 43 46 de 11 43 4c 02 82 43 4f 59 0d 43 ae 74 a8 43 b2 20 02 43 af e8 be 3f ab eb 87 3f b1 2d 35 3f b6 3e e0 3e 5f 1d 29 3e 6a 92 39 3e 74 5d 53 3f 2f 83 2e 3e 1b 17 71 3e 25 f3 ed 3e 2e bd 05 3e f7 e4 32
2025/10/20 11:00:05.128:Tag: 可控三项负载柜(1543484) 等级:发送报文 信息:0a 6f 00 00 00 06 01 03 00 96 00 22
2025/10/20 11:00:05.131:Tag: 可控三项负载柜(1543484) 等级:信息日志 信息: modbus-> sendDataToSocket ok skid: 10 ret:12 m_bufLen:12 

2025/10/20 11:00:05.337:Tag: 单相智能电表4(4) 等级:错误日志 信息: modbus readDataFromSocketE ok skid: 11 ret:23 expRxLen:23 


2025/10/20 11:00:05.340:Tag: 单相智能电表4(4) 等级:接收报文 信息:04 03 12 51 1b 0c 1d 00 00 12 fc 00 00 19 1d 00 00 0a b5 00 00 5f f3
2025/10/20 11:00:05.342:Tag: 单相智能电表5(5) 等级:发送报文 信息:05 03 00 02 00 09 25 88
2025/10/20 11:00:05.345:Tag: 单相智能电表5(5) 等级:信息日志 信息: modbus-> sendDataToSocket ok skid: 11 ret:8 m_bufLen:8 

2025/10/20 11:00:05.651:Tag: 单相智能电表5(5) 等级:错误日志 信息: modbus readDataFromSocketE ok skid: 11 ret:23 expRxLen:23 

2025/10/20 11:00:05.653:Tag: 单相智能电表5(5) 等级:接收报文 信息:05 03 12 4f fb 0b 56 00 00 10 b8 00 00 17 2e 00 00 0a 85 00 00 12 49
2025/10/20 11:00:05.656:Tag: 单相智能电表6(6) 等级:发送报文 信息:06 03 00 02 00 09 25 bb
2025/10/20 11:00:05.658:Tag: 单相智能电表6(6) 等级:信息日志 信息: modbus-> sendDataToSocket ok skid: 11 ret:8 m_bufLen:8 

2025/10/20 11:00:05.915:Tag: 单相智能电表6(6) 等级:错误日志 信息: modbus readDataFromSocketE ok skid: 11 ret:23 expRxLen:23 

2025/10/20 11:00:05.917:Tag: 单相智能电表6(6) 等级:接收报文 信息:06 03 12 50 6e 0b b7 00 00 11 e3 00 00 18 18 00 00 0a 8b 00 00 e6 fa
2025/10/20 11:00:05.920:Tag: 单相智能电表7(7) 等级:发送报文 信息:07 03 00 02 00 09 24 6a

2025/10/20 11:00:05.923:Tag: 单相智能电表7(7) 等级:信息日志 信息: modbus-> sendDataToSocket ok skid: 11 ret:8 m_bufLen:8 

2025/10/20 11:00:06.231:Tag: 单相智能电表7(7) 等级:错误日志 信息: modbus readDataFromSocketE ok skid: 11 ret:23 expRxLen:23 

2025/10/20 11:00:06.235:Tag: 单相智能电表7(7) 等级:接收报文 信息:07 03 12 4c 1b 02 c7 00 00 05 60 00 00 05 68 00 00 00 46 00 00 04 86
2025/10/20 11:00:06.238:Tag: 单相智能电表8(8) 等级:发送报文 信息:08 03 00 02 00 09 24 95
2025/10/20 11:00:06.242:Tag: 单相智能电表8(8) 等级:信息日志 信息: modbus-> sendDataToSocket ok skid: 11 ret:8 m_bufLen:8 

2025/10/20 11:00:06.551:Tag: 单相智能电表8(8) 等级:错误日志 信息: modbus readDataFromSocketE ok skid: 11 ret:23 expRxLen:23 

2025/10/20 11:00:06.554:Tag: 单相智能电表8(8) 等级:接收报文 信息:08 03 12 4c 68 07 8c 00 00 09 24 00 00 0e be 00 00 07 d1 00 00 f0 31
2025/10/20 11:00:06.557:Tag: 单相智能电表9(9) 等级:发送报文 信息:09 03 00 02 00 09 25 44
2025/10/20 11:00:06.559:Tag: 单相智能电表9(9) 等级:信息日志 信息: modbus-> sendDataToSocket ok skid: 11 ret:8 m_bufLen:8 

2025/10/20 11:00:06.865:Tag: 单相智能电表9(9) 等级:错误日志 信息: modbus readDataFromSocketE ok skid: 11 ret:23 expRxLen:23 


2025/10/20 11:00:06.867:Tag: 单相智能电表9(9) 等级:接收报文 信息:09 03 12 46 ff 0c b8 00 00 0d 4e 00 00 17 16 00 00 0d 20 00 00 fa 97
2025/10/20 11:00:06.870:Tag: 可控调压1(21) 等级:发送控制命令报文 信息:15 06 00 01 00 41 1b 2e
2025/10/20 11:00:07.176:Tag: 可控调压1(21) 等级:接收控制命令报文返回 信息:15 06 00 01 00 41 1b 2e
2025/10/20 11:00:07.178:Tag: 可控调压2(22) 等级:发送控制命令报文 信息:16 06 00 01 00 3d 1a fc
2025/10/20 11:00:07.232:Tag: 线路阻抗模拟柜(1543468) 等级:接收报文 信息:0a 6c 00 00 00 af 01 03 ac 43 5c 4d d4 43 5c 96 73 43 5d 22 c6 43 be e9 66 43 bf 45 9e 43 bf 26 30 41 53 ea 5c 41 5e 99 51 41 4f d9 ce 40 0e dc 97 40 18 96 e6 40 14 4c df 40 dd e0 2e 3f f0 87 8b 3f f7 55 64 3f d9 56 96 40 b0 4c e1 00 00 00 00 00 00 00 00 00 00 00 00 41 0d c0 6d 3f 48 59 db 42 48 00 00 43 bf 45 9e 41 5e 99 51 40 18 96 e6 43 37 7e 51 43 3c 2b ff 43 46 67 5e 43 a0 f0 a6 43 a7 69 66 43 a5 68 89 3f 0b 90 96 3f 19 e2 7c 3f 10 a5 a9 3d 8b 9b 0e 3d 99 85 2e 3d 91 24 b0 3e 5b 22 74 3d 95 f1 f0 3d ad 7a cb 3d b1 e3 5f 3e 7a a8 0d
2025/10/20 11:00:07.238:Tag: 线路阻抗模拟柜(1543468) 等级:发送报文 信息:0a 6d 00 00 00 06 01 03 00 87 00 56

2025/10/20 11:00:07.241:Tag: 线路阻抗模拟柜(1543468) 等级:信息日志 信息: modbus-> sendDataToSocket ok skid: 12 ret:12 m_bufLen:12 

2025/10/20 11:00:07.495:Tag: 可控调压2(22) 等级:接收控制命令报文返回 信息:16 06 00 01 00 3d 1a fc
2025/10/20 11:00:07.499:Tag: 三相智能电表1（线路阻抗柜端口2）(51) 等级:发送报文 信息:33 03 00 0a 00 22 e1 c3
2025/10/20 11:00:07.504:Tag: 三相智能电表1（线路阻抗柜端口2）(51) 等级:信息日志 信息: modbus-> sendDataToSocket ok skid: 11 ret:8 m_bufLen:8 

2025/10/20 11:00:07.815:Tag: 三相智能电表1（线路阻抗柜端口2）(51) 等级:错误日志 信息: modbus readDataFromSocketE ok skid: 11 ret:73 expRxLen:73 

2025/10/20 11:00:07.820:Tag: 三相智能电表1（线路阻抗柜端口2）(51) 等级:接收报文 信息:33 03 44 43 4f 54 8e 43 50 ce 22 43 52 3e 7f 43 b4 31 3d 43 b5 74 3c 43 b4 d1 06 41 02 c8 c2 40 a1 1f da 40 3f 5c ea 44 a0 f7 d0 44 5d e7 62 44 0c e3 67 45 2b 2e 9b 44 80 23 36 44 00 7f dc 43 83 9c 9e 44 e1 4a 4c 67 65
2025/10/20 11:00:07.827:Tag: 三相智能电表2（线路阻抗柜端口4）(52) 等级:发送报文 信息:34 03 00 0a 00 22 e0 74
2025/10/20 11:00:07.831:Tag: 三相智能电表2（线路阻抗柜端口4）(52) 等级:信息日志 信息: modbus-> sendDataToSocket ok skid: 11 ret:8 m_bufLen:8 


2025/10/20 11:00:08.142:Tag: 三相智能电表2（线路阻抗柜端口4）(52) 等级:错误日志 信息: modbus readDataFromSocketE ok skid: 11 ret:73 expRxLen:73 

2025/10/20 11:00:08.146:Tag: 三相智能电表2（线路阻抗柜端口4）(52) 等级:接收报文 信息:34 03 44 43 3d ed 31 43 47 db fc 43 4d 88 94 43 a8 cc ec 43 af 8b c4 43 ab 48 9e 40 c4 9b 00 40 3c fe 88 3f 0b f5 c8 44 51 f8 42 43 e5 b6 2e 42 8c 29 5b 44 ab 2c 42 44 34 5e 31 43 8e aa c8 42 70 45 20 44 85 5b f3 7d a0
2025/10/20 11:00:08.150:Tag: 三相智能电表3（线路阻抗柜端口5）(53) 等级:发送报文 信息:35 03 00 0a 00 22 e1 a5
2025/10/20 11:00:08.153:Tag: 三相智能电表3（线路阻抗柜端口5）(53) 等级:信息日志 信息: modbus-> sendDataToSocket ok skid: 11 ret:8 m_bufLen:8 

2025/10/20 11:00:08.413:Tag: 三相智能电表3（线路阻抗柜端口5）(53) 等级:错误日志 信息: modbus readDataFromSocketE ok skid: 11 ret:73 expRxLen:73 

2025/10/20 11:00:08.416:Tag: 三相智能电表3（线路阻抗柜端口5）(53) 等级:接收报文 信息:35 03 44 43 36 c0 ed 43 44 9f 47 43 4c f9 50 43 a4 4f a6 43 ad e8 a2 43 a7 fb 99 40 47 85 38 3f 96 2f 73 3f 0d d8 09 43 dd 9e 62 43 58 5a a4 42 8d 7c b2 44 36 95 70 43 84 69 50 42 81 5a 67 42 73 0e 79 43 c3 21 b8 fe ee

2025/10/20 11:00:08.420:Tag: 三相智能电表4（线路阻抗柜端口7）(54) 等级:发送报文 信息:36 03 00 0a 00 22 e1 96
2025/10/20 11:00:08.423:Tag: 三相智能电表4（线路阻抗柜端口7）(54) 等级:信息日志 信息: modbus-> sendDataToSocket ok skid: 11 ret:8 m_bufLen:8 

2025/10/20 11:00:08.729:Tag: 三相智能电表4（线路阻抗柜端口7）(54) 等级:错误日志 信息: modbus readDataFromSocketE ok skid: 11 ret:73 expRxLen:73 

2025/10/20 11:00:08.732:Tag: 三相智能电表4（线路阻抗柜端口7）(54) 等级:接收报文 信息:36 03 44 43 33 08 b8 43 43 5f 3f 43 4c 45 80 43 a2 2c 8e 43 ad 10 a6 43 a6 18 96 40 39 40 e8 3f 10 cc 0a 3f 0e c1 a8 c3 cc 58 fb c2 97 4f 0c c2 8a 18 eb c4 0a 59 7c c3 5a 58 de c2 68 42 40 c2 7d d2 42 c3 a9 ee ff ef 2e
2025/10/20 11:00:08.735:Tag: 三相智能电表5(55) 等级:发送报文 信息:37 03 00 00 00 22 c0 45
2025/10/20 11:00:08.737:Tag: 三相智能电表5(55) 等级:信息日志 信息: modbus-> sendDataToSocket ok skid: 11 ret:8 m_bufLen:8 

2025/10/20 11:00:09.047:Tag: 三相智能电表5(55) 等级:错误日志 信息: modbus readDataFromSocketE ok skid: 11 ret:73 expRxLen:73 

2025/10/20 11:00:09.051:Tag: 三相智能电表5(55) 等级:接收报文 信息:37 03 44 33 33 43 3d 80 00 43 47 4c cd 43 4c c0 00 43 a7 40 00 43 ae 99 9a 43 ab 7e fa 40 2a 81 06 40 55 8d 50 40 37 06 25 3f 01 4a 8c 3f 2a 9b 3d 3f 15 83 12 3f e0 34 d7 3c ef a0 27 3d 09 18 2b 3d 15 fb 16 3d cb 79 4c

2025/10/20 11:00:09.057:Tag: 三相智能电表6(56) 等级:发送报文 信息:38 03 00 00 00 22 c0 ba
2025/10/20 11:00:09.061:Tag: 三相智能电表6(56) 等级:信息日志 信息: modbus-> sendDataToSocket ok skid: 11 ret:8 m_bufLen:8 

2025/10/20 11:00:09.371:Tag: 三相智能电表6(56) 等级:错误日志 信息: modbus readDataFromSocketE ok skid: 11 ret:73 expRxLen:73 

2025/10/20 11:00:09.374:Tag: 三相智能电表6(56) 等级:接收报文 信息:38 03 44 00 00 00 00 00 00 00 00 00 00 00 00 00 00 00 00 00 00 00 00 00 00 00 00 00 00 00 00 00 00 00 00 00 00 00 00 00 00 00 00 00 00 00 00 00 00 00 00 00 00 00 00 00 00 00 00 00 00 00 00 00 00 00 00 00 00 00 00 aa a2
2025/10/20 11:00:09.378:Tag: 单相智能电表1(1) 等级:发送报文 信息:01 03 00 02 00 09 24 0c
2025/10/20 11:00:09.381:Tag: 单相智能电表1(1) 等级:信息日志 信息: modbus-> sendDataToSocket ok skid: 11 ret:8 m_bufLen:8 

2025/10/20 11:00:09.689:Tag: 单相智能电表1(1) 等级:错误日志 信息: modbus readDataFromSocketE ok skid: 11 ret:23 expRxLen:23 

2025/10/20 11:00:09.693:Tag: 单相智能电表1(1) 等级:接收报文 信息:01 03 12 4f 83 03 e5 00 00 07 f3 00 00 07 e9 00 00 00 02 00 00 41 87
2025/10/20 11:00:09.697:Tag: 单相智能电表2(2) 等级:发送报文 信息:02 03 00 02 00 09 24 3f

2025/10/20 11:00:09.702:Tag: 单相智能电表2(2) 等级:信息日志 信息: modbus-> sendDataToSocket ok skid: 11 ret:8 m_bufLen:8 

2025/10/20 11:00:09.962:Tag: 单相智能电表2(2) 等级:错误日志 信息: modbus readDataFromSocketE ok skid: 11 ret:23 expRxLen:23 

2025/10/20 11:00:09.965:Tag: 单相智能电表2(2) 等级:接收报文 信息:02 03 12 4f 71 12 59 00 00 1b d3 00 00 25 46 00 00 10 26 00 00 05 e5
2025/10/20 11:00:09.968:Tag: 单相智能电表3(3) 等级:发送报文 信息:03 03 00 02 00 09 25 ee
2025/10/20 11:00:09.971:Tag: 单相智能电表3(3) 等级:信息日志 信息: modbus-> sendDataToSocket ok skid: 11 ret:8 m_bufLen:8 

2025/10/20 11:00:10.128:Tag: 可控三项负载柜(1543484) 等级:接收报文 信息:0a 6f 00 00 00 47 01 03 44 43 46 b7 1b 43 4b cf 8a 43 4f 1e 37 43 ae 4d b2 43 b1 f0 74 43 af be 58 3f ab f0 45 3f b0 f8 64 3f b5 d0 b5 3e 5f 2d 88 3e 69 9e c9 3e 73 8a b3 3f 2f 15 c2 3e 1a a0 fc 3e 26 33 3f 3e 2d d2 cf 3e f7 53 86
2025/10/20 11:00:10.131:Tag: 可控三项负载柜(1543484) 等级:发送报文 信息:0a 70 00 00 00 06 01 03 00 96 00 22
2025/10/20 11:00:10.134:Tag: 可控三项负载柜(1543484) 等级:信息日志 信息: modbus-> sendDataToSocket ok skid: 10 ret:12 m_bufLen:12 


2025/10/20 11:00:10.290:Tag: 单相智能电表3(3) 等级:错误日志 信息: modbus readDataFromSocketE ok skid: 11 ret:23 expRxLen:23 

2025/10/20 11:00:10.292:Tag: 单相智能电表3(3) 等级:接收报文 信息:03 03 12 4f cd 08 43 00 00 05 a5 00 00 10 db 00 00 09 d3 00 00 b0 5d
2025/10/20 11:00:10.295:Tag: 单相智能电表4(4) 等级:发送报文 信息:04 03 00 02 00 09 24 59
2025/10/20 11:00:10.298:Tag: 单相智能电表4(4) 等级:信息日志 信息: modbus-> sendDataToSocket ok skid: 11 ret:8 m_bufLen:8 

2025/10/20 11:00:10.602:Tag: 单相智能电表4(4) 等级:错误日志 信息: modbus readDataFromSocketE ok skid: 11 ret:23 expRxLen:23 

2025/10/20 11:00:10.604:Tag: 单相智能电表4(4) 等级:接收报文 信息:04 03 12 51 28 0c 1f 00 00 13 05 00 00 19 26 00 00 0a b7 00 00 c2 52
2025/10/20 11:00:10.607:Tag: 单相智能电表5(5) 等级:发送报文 信息:05 03 00 02 00 09 25 88
2025/10/20 11:00:10.610:Tag: 单相智能电表5(5) 等级:信息日志 信息: modbus-> sendDataToSocket ok skid: 11 ret:8 m_bufLen:8 

2025/10/20 11:00:10.915:Tag: 单相智能电表5(5) 等级:错误日志 信息: modbus readDataFromSocketE ok skid: 11 ret:23 expRxLen:23 

2025/10/20 11:00:10.917:Tag: 单相智能电表5(5) 等级:接收报文 信息:05 03 12 50 0e 0b 57 00 00 10 ba 00 00 17 35 00 00 0a 8a 00 00 23 43

2025/10/20 11:00:10.920:Tag: 单相智能电表6(6) 等级:发送报文 信息:06 03 00 02 00 09 25 bb
2025/10/20 11:00:10.923:Tag: 单相智能电表6(6) 等级:信息日志 信息: modbus-> sendDataToSocket ok skid: 11 ret:8 m_bufLen:8 

2025/10/20 11:00:11.231:Tag: 单相智能电表6(6) 等级:错误日志 信息: modbus readDataFromSocketE ok skid: 11 ret:23 expRxLen:23 

2025/10/20 11:00:11.235:Tag: 单相智能电表6(6) 等级:接收报文 信息:06 03 12 50 90 0b bd 00 00 11 f3 00 00 18 2e 00 00 0a 94 00 00 7f a8
2025/10/20 11:00:11.239:Tag: 单相智能电表7(7) 等级:发送报文 信息:07 03 00 02 00 09 24 6a
2025/10/20 11:00:11.243:Tag: 单相智能电表7(7) 等级:信息日志 信息: modbus-> sendDataToSocket ok skid: 11 ret:8 m_bufLen:8 

2025/10/20 11:00:11.554:Tag: 单相智能电表7(7) 等级:错误日志 信息: modbus readDataFromSocketE ok skid: 11 ret:23 expRxLen:23 

2025/10/20 11:00:11.558:Tag: 单相智能电表7(7) 等级:接收报文 信息:07 03 12 4c 26 02 d0 00 00 05 72 00 00 05 7a 00 00 00 4d 00 00 cf af
2025/10/20 11:00:11.562:Tag: 单相智能电表8(8) 等级:发送报文 信息:08 03 00 02 00 09 24 95
2025/10/20 11:00:11.566:Tag: 单相智能电表8(8) 等级:信息日志 信息: modbus-> sendDataToSocket ok skid: 11 ret:8 m_bufLen:8 


2025/10/20 11:00:11.876:Tag: 单相智能电表8(8) 等级:错误日志 信息: modbus readDataFromSocketE ok skid: 11 ret:23 expRxLen:23 

2025/10/20 11:00:11.879:Tag: 单相智能电表8(8) 等级:接收报文 信息:08 03 12 4c 7b 07 92 00 00 09 31 00 00 0e cc 00 00 07 d7 00 00 64 06
2025/10/20 11:00:11.883:Tag: 单相智能电表9(9) 等级:发送报文 信息:09 03 00 02 00 09 25 44
2025/10/20 11:00:11.886:Tag: 单相智能电表9(9) 等级:信息日志 信息: modbus-> sendDataToSocket ok skid: 11 ret:8 m_bufLen:8 

2025/10/20 11:00:12.146:Tag: 单相智能电表9(9) 等级:错误日志 信息: modbus readDataFromSocketE ok skid: 11 ret:23 expRxLen:23 

2025/10/20 11:00:12.150:Tag: 单相智能电表9(9) 等级:接收报文 信息:09 03 12 47 1e 0c bc 00 00 0d 56 00 00 17 27 00 00 0d 2b 00 00 98 af
2025/10/20 11:00:12.155:Tag: 可控调压3(23) 等级:发送控制命令报文 信息:17 06 00 01 00 42 5a cd
2025/10/20 11:00:12.211:Tag: 线路阻抗模拟柜(1543468) 等级:接收报文 信息:0a 6d 00 00 00 af 01 03 ac 43 5c 2d 34 43 5c 7d c7 43 5d 02 c7 43 be d0 97 43 bf 2d 14 43 bf 0a 34 41 53 c5 9f 41 5e 97 77 41 4f 94 c4 40 0e aa 6b 40 18 93 2e 40 13 fa e9 40 dd 9c 40 3f f0 44 63 3f f7 13 96 3f d9 0d ba 40 b0 19 6d 00 00 00 00 00 00 00 00 00 00 00 00 41 0d 95 9d 3f 48 59 08 42 48 00 00 43 bf 2d 14 41 5e 97 77 40 18 93 2e 43 37 8a fe 43 3c 1f 4e 43 46 59 9f 43 a0 f0 98 43 a7 5d f2 43 a5 67 ed 3f 0b 80 9a 3f 19 ac 66 3f 11 00 4c 3d 8c 35 65 3d 98 f2 e8 3d 91 18 23 3e 5b 20 39 3d 95 54 e1 3d ad 7a 8c 3d b2 92 8c 3e 7a b0 fd

2025/10/20 11:00:12.218:Tag: 线路阻抗模拟柜(1543468) 等级:发送报文 信息:0a 6e 00 00 00 06 01 03 00 87 00 56
2025/10/20 11:00:12.222:Tag: 线路阻抗模拟柜(1543468) 等级:信息日志 信息: modbus-> sendDataToSocket ok skid: 12 ret:12 m_bufLen:12 

2025/10/20 11:00:12.480:Tag: 可控调压3(23) 等级:接收控制命令报文返回 信息:17 06 00 01 00 42 5a cd
2025/10/20 11:00:12.482:Tag: 三相智能电表1（线路阻抗柜端口2）(51) 等级:发送报文 信息:33 03 00 0a 00 22 e1 c3
2025/10/20 11:00:12.484:Tag: 三相智能电表1（线路阻抗柜端口2）(51) 等级:信息日志 信息: modbus-> sendDataToSocket ok skid: 11 ret:8 m_bufLen:8 

2025/10/20 11:00:12.793:Tag: 三相智能电表1（线路阻抗柜端口2）(51) 等级:错误日志 信息: modbus readDataFromSocketE ok skid: 11 ret:73 expRxLen:73 

2025/10/20 11:00:12.796:Tag: 三相智能电表1（线路阻抗柜端口2）(51) 等级:接收报文 信息:33 03 44 43 4f 88 62 43 51 1c d6 43 52 52 16 43 b4 69 c6 43 b5 9e c5 43 b4 ef ea 41 02 dc 3d 40 a0 f9 28 40 3f 91 b8 44 a1 5d 02 44 5d e7 76 44 0d 22 f4 45 2b 71 1c 44 80 5b f4 44 00 99 cc 43 83 af 14 44 e1 94 9e 11 44
2025/10/20 11:00:12.799:Tag: 三相智能电表2（线路阻抗柜端口4）(52) 等级:发送报文 信息:34 03 00 0a 00 22 e0 74
2025/10/20 11:00:12.801:Tag: 三相智能电表2（线路阻抗柜端口4）(52) 等级:信息日志 信息: modbus-> sendDataToSocket ok skid: 11 ret:8 m_bufLen:8 


2025/10/20 11:00:13.112:Tag: 三相智能电表2（线路阻抗柜端口4）(52) 等级:错误日志 信息: modbus readDataFromSocketE ok skid: 11 ret:73 expRxLen:73 

2025/10/20 11:00:13.115:Tag: 三相智能电表2（线路阻抗柜端口4）(52) 等级:接收报文 信息:34 03 44 43 3e 09 16 43 47 ed 99 43 4d 79 d7 43 a8 e0 97 43 af 8c f3 43 ab 4e 12 40 c4 a8 7d 40 3c fc 44 3f 0c b9 d2 44 52 11 64 43 e5 b4 29 42 8d 40 b1 44 ab 49 c7 44 34 aa ae 43 8e 99 24 42 71 3f 18 44 85 85 99 99 7e
2025/10/20 11:00:13.120:Tag: 三相智能电表3（线路阻抗柜端口5）(53) 等级:发送报文 信息:35 03 00 0a 00 22 e1 a5
2025/10/20 11:00:13.124:Tag: 三相智能电表3（线路阻抗柜端口5）(53) 等级:信息日志 信息: modbus-> sendDataToSocket ok skid: 11 ret:8 m_bufLen:8 

2025/10/20 11:00:13.381:Tag: 三相智能电表3（线路阻抗柜端口5）(53) 等级:错误日志 信息: modbus readDataFromSocketE ok skid: 11 ret:73 expRxLen:73 

2025/10/20 11:00:13.385:Tag: 三相智能电表3（线路阻抗柜端口5）(53) 等级:接收报文 信息:35 03 44 43 36 c2 8f 43 44 9d 56 43 4c e2 da 43 a4 4f 7e 43 ad de 02 43 a7 f2 62 40 47 69 f6 3f 95 bc a2 3f 0d 2b be 43 dd bf b6 43 57 e1 01 42 8c 16 92 44 36 5a ed 43 84 45 c5 42 80 8d 4a 42 71 72 c8 43 c2 97 70 7a f1

2025/10/20 11:00:13.391:Tag: 三相智能电表4（线路阻抗柜端口7）(54) 等级:发送报文 信息:36 03 00 0a 00 22 e1 96
2025/10/20 11:00:13.395:Tag: 三相智能电表4（线路阻抗柜端口7）(54) 等级:信息日志 信息: modbus-> sendDataToSocket ok skid: 11 ret:8 m_bufLen:8 

2025/10/20 11:00:13.706:Tag: 三相智能电表4（线路阻抗柜端口7）(54) 等级:错误日志 信息: modbus readDataFromSocketE ok skid: 11 ret:73 expRxLen:73 

2025/10/20 11:00:13.711:Tag: 三相智能电表4（线路阻抗柜端口7）(54) 等级:接收报文 信息:36 03 44 43 33 02 90 43 43 51 50 43 4c 32 91 43 a2 23 d0 43 ad 02 67 43 a6 0d 9c 40 39 1a 4d 3f 11 66 52 3f 0e ba b8 c3 cc 34 30 c2 97 bf 5e c2 89 af e6 c4 0a 48 01 c3 59 c8 50 c2 68 82 76 c2 7d 0a a3 c3 a9 95 ca 36 b9
2025/10/20 11:00:13.715:Tag: 三相智能电表5(55) 等级:发送报文 信息:37 03 00 00 00 22 c0 45
2025/10/20 11:00:13.719:Tag: 三相智能电表5(55) 等级:信息日志 信息: modbus-> sendDataToSocket ok skid: 11 ret:8 m_bufLen:8 

2025/10/20 11:00:14.029:Tag: 三相智能电表5(55) 等级:错误日志 信息: modbus readDataFromSocketE ok skid: 11 ret:73 expRxLen:73 

2025/10/20 11:00:14.033:Tag: 三相智能电表5(55) 等级:接收报文 信息:37 03 44 33 33 43 3d 80 00 43 47 33 33 43 4c c0 00 43 a7 40 00 43 ae 8c cd 43 ab 7e fa 40 2a 81 06 40 55 4b c7 40 37 eb ee 3f 00 30 55 3f 2a 81 06 3f 15 5b c0 3f e0 34 d7 3c ef a0 27 3d 09 74 bc 3d 13 29 5f 3d cb ec de

2025/10/20 11:00:14.038:Tag: 三相智能电表6(56) 等级:发送报文 信息:38 03 00 00 00 22 c0 ba
2025/10/20 11:00:14.043:Tag: 三相智能电表6(56) 等级:信息日志 信息: modbus-> sendDataToSocket ok skid: 11 ret:8 m_bufLen:8 

2025/10/20 11:00:14.353:Tag: 三相智能电表6(56) 等级:错误日志 信息: modbus readDataFromSocketE ok skid: 11 ret:73 expRxLen:73 

2025/10/20 11:00:14.356:Tag: 三相智能电表6(56) 等级:接收报文 信息:38 03 44 00 00 00 00 00 00 00 00 00 00 00 00 00 00 00 00 00 00 00 00 00 00 00 00 00 00 00 00 00 00 00 00 00 00 00 00 00 00 00 00 00 00 00 00 00 00 00 00 00 00 00 00 00 00 00 00 00 00 00 00 00 00 00 00 00 00 00 00 aa a2
2025/10/20 11:00:14.360:Tag: 单相智能电表1(1) 等级:发送报文 信息:01 03 00 02 00 09 24 0c
2025/10/20 11:00:14.363:Tag: 单相智能电表1(1) 等级:信息日志 信息: modbus-> sendDataToSocket ok skid: 11 ret:8 m_bufLen:8 

2025/10/20 11:00:14.672:Tag: 单相智能电表1(1) 等级:错误日志 信息: modbus readDataFromSocketE ok skid: 11 ret:23 expRxLen:23 

2025/10/20 11:00:14.676:Tag: 单相智能电表1(1) 等级:接收报文 信息:01 03 12 4f 77 03 e4 00 00 07 f0 00 00 07 e7 00 00 00 02 00 00 66 f1
2025/10/20 11:00:14.680:Tag: 单相智能电表2(2) 等级:发送报文 信息:02 03 00 02 00 09 24 3f

2025/10/20 11:00:14.685:Tag: 单相智能电表2(2) 等级:信息日志 信息: modbus-> sendDataToSocket ok skid: 11 ret:8 m_bufLen:8 

2025/10/20 11:00:14.944:Tag: 单相智能电表2(2) 等级:错误日志 信息: modbus readDataFromSocketE ok skid: 11 ret:23 expRxLen:23 

2025/10/20 11:00:14.947:Tag: 单相智能电表2(2) 等级:接收报文 信息:02 03 12 4f 6a 12 58 00 00 1b ce 00 00 25 3f 00 00 10 25 00 00 c9 b9
2025/10/20 11:00:14.950:Tag: 单相智能电表3(3) 等级:发送报文 信息:03 03 00 02 00 09 25 ee
2025/10/20 11:00:14.953:Tag: 单相智能电表3(3) 等级:信息日志 信息: modbus-> sendDataToSocket ok skid: 11 ret:8 m_bufLen:8 

2025/10/20 11:00:15.109:Tag: 可控三项负载柜(1543484) 等级:接收报文 信息:0a 70 00 00 00 47 01 03 44 43 46 f9 e1 43 4c 20 d5 43 4f 5e 17 43 ae 8d d6 43 b2 2f 4c 43 af f6 e7 3f ac 15 d3 3f b1 7b 1c 3f b6 16 65 3e 5f 07 8c 3e 6b 68 e1 3e 74 a1 3f 3f 2f c4 6b 3e 1b 89 fa 3e 26 d1 43 3e 2d e2 e6 3e f8 1f 13
2025/10/20 11:00:15.112:Tag: 可控三项负载柜(1543484) 等级:发送报文 信息:0a 71 00 00 00 06 01 03 00 96 00 22
2025/10/20 11:00:15.115:Tag: 可控三项负载柜(1543484) 等级:信息日志 信息: modbus-> sendDataToSocket ok skid: 10 ret:12 m_bufLen:12 


2025/10/20 11:00:15.272:Tag: 单相智能电表3(3) 等级:错误日志 信息: modbus readDataFromSocketE ok skid: 11 ret:23 expRxLen:23 

2025/10/20 11:00:15.274:Tag: 单相智能电表3(3) 等级:接收报文 信息:03 03 12 4f c1 08 3b 00 00 05 9b 00 00 10 c8 00 00 09 c7 00 00 a4 51
2025/10/20 11:00:15.277:Tag: 单相智能电表4(4) 等级:发送报文 信息:04 03 00 02 00 09 24 59
2025/10/20 11:00:15.279:Tag: 单相智能电表4(4) 等级:信息日志 信息: modbus-> sendDataToSocket ok skid: 11 ret:8 m_bufLen:8 

2025/10/20 11:00:15.584:Tag: 单相智能电表4(4) 等级:错误日志 信息: modbus readDataFromSocketE ok skid: 11 ret:23 expRxLen:23 

2025/10/20 11:00:15.588:Tag: 单相智能电表4(4) 等级:接收报文 信息:04 03 12 51 22 0c 1f 00 00 13 02 00 00 19 23 00 00 0a b7 00 00 ab 84
2025/10/20 11:00:15.592:Tag: 单相智能电表5(5) 等级:发送报文 信息:05 03 00 02 00 09 25 88
2025/10/20 11:00:15.596:Tag: 单相智能电表5(5) 等级:信息日志 信息: modbus-> sendDataToSocket ok skid: 11 ret:8 m_bufLen:8 

2025/10/20 11:00:15.906:Tag: 单相智能电表5(5) 等级:错误日志 信息: modbus readDataFromSocketE ok skid: 11 ret:23 expRxLen:23 

2025/10/20 11:00:15.910:Tag: 单相智能电表5(5) 等级:接收报文 信息:05 03 12 4f ff 0b 55 00 00 10 b5 00 00 17 2d 00 00 0a 86 00 00 eb 25

2025/10/20 11:00:15.915:Tag: 单相智能电表6(6) 等级:发送报文 信息:06 03 00 02 00 09 25 bb
2025/10/20 11:00:15.919:Tag: 单相智能电表6(6) 等级:信息日志 信息: modbus-> sendDataToSocket ok skid: 11 ret:8 m_bufLen:8 

2025/10/20 11:00:16.178:Tag: 单相智能电表6(6) 等级:错误日志 信息: modbus readDataFromSocketE ok skid: 11 ret:23 expRxLen:23 

2025/10/20 11:00:16.182:Tag: 单相智能电表6(6) 等级:接收报文 信息:06 03 12 50 7e 0b bb 00 00 11 ec 00 00 18 23 00 00 0a 90 00 00 2d ea
2025/10/20 11:00:16.185:Tag: 单相智能电表7(7) 等级:发送报文 信息:07 03 00 02 00 09 24 6a
2025/10/20 11:00:16.189:Tag: 单相智能电表7(7) 等级:信息日志 信息: modbus-> sendDataToSocket ok skid: 11 ret:8 m_bufLen:8 

2025/10/20 11:00:16.498:Tag: 单相智能电表7(7) 等级:错误日志 信息: modbus readDataFromSocketE ok skid: 11 ret:23 expRxLen:23 

2025/10/20 11:00:16.502:Tag: 单相智能电表7(7) 等级:接收报文 信息:07 03 12 4c 1e 02 c7 00 00 05 61 00 00 05 68 00 00 00 46 00 00 13 2b
2025/10/20 11:00:16.505:Tag: 单相智能电表8(8) 等级:发送报文 信息:08 03 00 02 00 09 24 95
2025/10/20 11:00:16.508:Tag: 单相智能电表8(8) 等级:信息日志 信息: modbus-> sendDataToSocket ok skid: 11 ret:8 m_bufLen:8 


2025/10/20 11:00:16.817:Tag: 单相智能电表8(8) 等级:错误日志 信息: modbus readDataFromSocketE ok skid: 11 ret:23 expRxLen:23 

2025/10/20 11:00:16.819:Tag: 单相智能电表8(8) 等级:接收报文 信息:08 03 12 4c 70 07 90 00 00 09 2d 00 00 0e c6 00 00 07 d4 00 00 a0 a5
2025/10/20 11:00:16.822:Tag: 单相智能电表9(9) 等级:发送报文 信息:09 03 00 02 00 09 25 44
2025/10/20 11:00:16.824:Tag: 单相智能电表9(9) 等级:信息日志 信息: modbus-> sendDataToSocket ok skid: 11 ret:8 m_bufLen:8 

2025/10/20 11:00:17.130:Tag: 单相智能电表9(9) 等级:错误日志 信息: modbus readDataFromSocketE ok skid: 11 ret:23 expRxLen:23 

2025/10/20 11:00:17.134:Tag: 单相智能电表9(9) 等级:接收报文 信息:09 03 12 47 18 0c b8 00 00 0d 4c 00 00 17 1d 00 00 0d 27 00 00 50 15
2025/10/20 11:00:17.138:Tag: 三相智能电表1（线路阻抗柜端口2）(51) 等级:发送报文 信息:33 03 00 0a 00 22 e1 c3
2025/10/20 11:00:17.142:Tag: 三相智能电表1（线路阻抗柜端口2）(51) 等级:信息日志 信息: modbus-> sendDataToSocket ok skid: 11 ret:8 m_bufLen:8 

2025/10/20 11:00:17.248:Tag: 线路阻抗模拟柜(1543468) 等级:接收报文 信息:0a 6e 00 00 00 af 01 03 ac 43 5c 65 55 43 5c ba 1b 43 5d 2e 5c 43 bf 03 06 43 bf 5a 12 43 bf 35 61 41 50 61 b2 41 5d 78 56 41 4f d0 72 40 0b 0a 7d 40 17 90 4f 40 14 35 5d 40 db 68 14 3f f0 20 e2 3f f7 17 2c 3f d9 9b 41 40 b0 34 d3 00 00 00 00 00 00 00 00 00 00 00 00 41 0c c6 84 3f 47 7e cb 42 48 00 00 43 bf 5a 12 41 5d 78 56 40 17 90 4f 43 37 af 07 43 3c 35 d5 43 46 64 69 43 a1 09 ee 43 a7 6c 54 43 a5 7c 0e 3f 0c 5f e2 3f 19 aa ae 3f 10 56 70 3d 8d 51 27 3d 99 aa 69 3d 90 3f cd 3e 5b 9d af 3d 96 43 a6 3d ac f9 ad 3d b1 f7 07 3e 7a 9a 2d

2025/10/20 11:00:17.254:Tag: 线路阻抗模拟柜(1543468) 等级:发送报文 信息:0a 6f 00 00 00 06 01 03 00 87 00 56
2025/10/20 11:00:17.258:Tag: 线路阻抗模拟柜(1543468) 等级:信息日志 信息: modbus-> sendDataToSocket ok skid: 12 ret:12 m_bufLen:12 

2025/10/20 11:00:17.466:Tag: 三相智能电表1（线路阻抗柜端口2）(51) 等级:错误日志 信息: modbus readDataFromSocketE ok skid: 11 ret:73 expRxLen:73 

2025/10/20 11:00:17.471:Tag: 三相智能电表1（线路阻抗柜端口2）(51) 等级:接收报文 信息:33 03 44 43 4f 9e 21 43 50 ee 52 43 52 83 f7 43 b4 5f 04 43 b5 a0 46 43 b5 0e f5 41 02 d4 17 40 a1 0b ef 40 3f 8a 77 44 a1 43 38 44 5d db 56 44 0d 3f 54 45 2b 68 47 44 80 72 5e 44 00 72 30 43 83 bb 76 44 e1 9a 53 8d 52
2025/10/20 11:00:17.476:Tag: 三相智能电表2（线路阻抗柜端口4）(52) 等级:发送报文 信息:34 03 00 0a 00 22 e0 74
2025/10/20 11:00:17.480:Tag: 三相智能电表2（线路阻抗柜端口4）(52) 等级:信息日志 信息: modbus-> sendDataToSocket ok skid: 11 ret:8 m_bufLen:8 

2025/10/20 11:00:17.739:Tag: 三相智能电表2（线路阻抗柜端口4）(52) 等级:错误日志 信息: modbus readDataFromSocketE ok skid: 11 ret:73 expRxLen:73 

2025/10/20 11:00:17.744:Tag: 三相智能电表2（线路阻抗柜端口4）(52) 等级:接收报文 信息:34 03 44 43 3e 05 a8 43 47 e6 c8 43 4d a6 5e 43 a8 dc 24 43 af 9d 62 43 ab 60 22 40 c4 b4 89 40 3c ff 9d 3f 0c 46 41 44 52 23 07 43 e5 db d0 42 8c 16 75 44 ab 49 de 44 34 b5 4e 43 8e 9a b6 42 70 1c 70 44 85 82 38 e4 8a

2025/10/20 11:00:17.749:Tag: 三相智能电表3（线路阻抗柜端口5）(53) 等级:发送报文 信息:35 03 00 0a 00 22 e1 a5
2025/10/20 11:00:17.754:Tag: 三相智能电表3（线路阻抗柜端口5）(53) 等级:信息日志 信息: modbus-> sendDataToSocket ok skid: 11 ret:8 m_bufLen:8 

2025/10/20 11:00:18.065:Tag: 三相智能电表3（线路阻抗柜端口5）(53) 等级:错误日志 信息: modbus readDataFromSocketE ok skid: 11 ret:73 expRxLen:73 

2025/10/20 11:00:18.070:Tag: 三相智能电表3（线路阻抗柜端口5）(53) 等级:接收报文 信息:35 03 44 43 36 f0 49 43 44 82 91 43 4c fb c0 43 a4 57 53 43 ad dd 5a 43 a8 10 c8 40 47 e2 e4 3f 95 ec 8c 3f 0d 85 0e 43 de 91 b6 43 58 07 ae 42 8d 1a ee 44 36 ee 25 43 84 55 6c 42 80 6b 9a 42 71 ef b7 43 c2 ae 49 69 70
2025/10/20 11:00:18.074:Tag: 三相智能电表4（线路阻抗柜端口7）(54) 等级:发送报文 信息:36 03 00 0a 00 22 e1 96
2025/10/20 11:00:18.079:Tag: 三相智能电表4（线路阻抗柜端口7）(54) 等级:信息日志 信息: modbus-> sendDataToSocket ok skid: 11 ret:8 m_bufLen:8 

2025/10/20 11:00:18.389:Tag: 三相智能电表4（线路阻抗柜端口7）(54) 等级:错误日志 信息: modbus readDataFromSocketE ok skid: 11 ret:73 expRxLen:73 

2025/10/20 11:00:18.394:Tag: 三相智能电表4（线路阻抗柜端口7）(54) 等级:接收报文 信息:36 03 44 43 33 36 50 43 43 7b 01 43 4c 5f 0f 43 a2 4c 32 43 ad 27 ba 43 a6 37 2f 40 39 97 02 3f 11 3e 3e 3f 0f 23 1e c3 cc b3 8a c2 97 65 6e c2 89 fc 7b c4 0a 86 02 c3 5b 62 2e c2 6a bf 3d c2 7d b5 e5 c3 aa bf bc 67 8c

2025/10/20 11:00:18.399:Tag: 三相智能电表5(55) 等级:发送报文 信息:37 03 00 00 00 22 c0 45
2025/10/20 11:00:18.404:Tag: 三相智能电表5(55) 等级:信息日志 信息: modbus-> sendDataToSocket ok skid: 11 ret:8 m_bufLen:8 

2025/10/20 11:00:18.663:Tag: 三相智能电表5(55) 等级:错误日志 信息: modbus readDataFromSocketE ok skid: 11 ret:73 expRxLen:73 

2025/10/20 11:00:18.667:Tag: 三相智能电表5(55) 等级:接收报文 信息:37 03 44 4c cd 43 3d 80 00 43 47 4c cd 43 4c cc cd 43 a7 33 33 43 ae a6 66 43 ab c0 83 40 2a 3f 7d 40 55 8d 50 40 37 06 25 3f 01 16 1e 3f 2a b5 74 3f 15 75 f7 3f e0 34 d7 3c ef a0 27 3d 09 74 bc 3d 13 29 5f 3d cb ec 6e
2025/10/20 11:00:18.672:Tag: 三相智能电表6(56) 等级:发送报文 信息:38 03 00 00 00 22 c0 ba
2025/10/20 11:00:18.676:Tag: 三相智能电表6(56) 等级:信息日志 信息: modbus-> sendDataToSocket ok skid: 11 ret:8 m_bufLen:8 

2025/10/20 11:00:18.987:Tag: 三相智能电表6(56) 等级:错误日志 信息: modbus readDataFromSocketE ok skid: 11 ret:73 expRxLen:73 

2025/10/20 11:00:18.991:Tag: 三相智能电表6(56) 等级:接收报文 信息:38 03 44 00 00 00 00 00 00 00 00 00 00 00 00 00 00 00 00 00 00 00 00 00 00 00 00 00 00 00 00 00 00 00 00 00 00 00 00 00 00 00 00 00 00 00 00 00 00 00 00 00 00 00 00 00 00 00 00 00 00 00 00 00 00 00 00 00 00 00 00 aa a2

2025/10/20 11:00:18.997:Tag: 单相智能电表1(1) 等级:发送报文 信息:01 03 00 02 00 09 24 0c
2025/10/20 11:00:19.001:Tag: 单相智能电表1(1) 等级:信息日志 信息: modbus-> sendDataToSocket ok skid: 11 ret:8 m_bufLen:8 

2025/10/20 11:00:19.311:Tag: 单相智能电表1(1) 等级:错误日志 信息: modbus readDataFromSocketE ok skid: 11 ret:23 expRxLen:23 

2025/10/20 11:00:19.315:Tag: 单相智能电表1(1) 等级:接收报文 信息:01 03 12 4f 7e 03 e5 00 00 07 f2 00 00 07 e9 00 00 00 02 00 00 95 db
2025/10/20 11:00:19.319:Tag: 单相智能电表2(2) 等级:发送报文 信息:02 03 00 02 00 09 24 3f
2025/10/20 11:00:19.324:Tag: 单相智能电表2(2) 等级:信息日志 信息: modbus-> sendDataToSocket ok skid: 11 ret:8 m_bufLen:8 

2025/10/20 11:00:19.634:Tag: 单相智能电表2(2) 等级:错误日志 信息: modbus readDataFromSocketE ok skid: 11 ret:23 expRxLen:23 

2025/10/20 11:00:19.638:Tag: 单相智能电表2(2) 等级:接收报文 信息:02 03 12 4f 75 12 5a 00 00 1b d6 00 00 25 49 00 00 10 27 00 00 bb 29
2025/10/20 11:00:19.643:Tag: 单相智能电表3(3) 等级:发送报文 信息:03 03 00 02 00 09 25 ee
2025/10/20 11:00:19.647:Tag: 单相智能电表3(3) 等级:信息日志 信息: modbus-> sendDataToSocket ok skid: 11 ret:8 m_bufLen:8 


2025/10/20 11:00:19.909:Tag: 单相智能电表3(3) 等级:错误日志 信息: modbus readDataFromSocketE ok skid: 11 ret:23 expRxLen:23 

2025/10/20 11:00:19.913:Tag: 单相智能电表3(3) 等级:接收报文 信息:03 03 12 4f c8 08 3c 00 00 05 9c 00 00 10 cb 00 00 09 ca 00 00 8d b6
2025/10/20 11:00:19.917:Tag: 单相智能电表4(4) 等级:发送报文 信息:04 03 00 02 00 09 24 59
2025/10/20 11:00:19.921:Tag: 单相智能电表4(4) 等级:信息日志 信息: modbus-> sendDataToSocket ok skid: 11 ret:8 m_bufLen:8 

2025/10/20 11:00:20.129:Tag: 可控三项负载柜(1543484) 等级:接收报文 信息:0a 71 00 00 00 47 01 03 44 43 46 e0 0c 43 4c 0a ba 43 4f 47 ea 43 ae 79 16 43 b2 1c 1f 43 af e2 20 3f ab e2 10 3f b1 62 ce 3f b6 01 90 3e 5e c2 1a 3e 6a a1 3f 3e 74 43 62 3f 2f 69 af 3e 1b 82 d0 3e 26 07 53 3e 2d 73 c8 3e f7 7e f7
2025/10/20 11:00:20.134:Tag: 可控三项负载柜(1543484) 等级:发送报文 信息:0a 72 00 00 00 06 01 03 00 96 00 22
2025/10/20 11:00:20.138:Tag: 可控三项负载柜(1543484) 等级:信息日志 信息: modbus-> sendDataToSocket ok skid: 10 ret:12 m_bufLen:12 

2025/10/20 11:00:20.243:Tag: 单相智能电表4(4) 等级:错误日志 信息: modbus readDataFromSocketE ok skid: 11 ret:23 expRxLen:23 


2025/10/20 11:00:20.248:Tag: 单相智能电表4(4) 等级:接收报文 信息:04 03 12 51 2d 0c 20 00 00 13 07 00 00 19 2a 00 00 0a b9 00 00 08 68
2025/10/20 11:00:20.252:Tag: 单相智能电表5(5) 等级:发送报文 信息:05 03 00 02 00 09 25 88
2025/10/20 11:00:20.256:Tag: 单相智能电表5(5) 等级:信息日志 信息: modbus-> sendDataToSocket ok skid: 11 ret:8 m_bufLen:8 

2025/10/20 11:00:20.514:Tag: 单相智能电表5(5) 等级:错误日志 信息: modbus readDataFromSocketE ok skid: 11 ret:23 expRxLen:23 

2025/10/20 11:00:20.518:Tag: 单相智能电表5(5) 等级:接收报文 信息:05 03 12 50 06 0b 54 00 00 10 b3 00 00 17 2d 00 00 0a 87 00 00 c0 de
2025/10/20 11:00:20.522:Tag: 单相智能电表6(6) 等级:发送报文 信息:06 03 00 02 00 09 25 bb
2025/10/20 11:00:20.526:Tag: 单相智能电表6(6) 等级:信息日志 信息: modbus-> sendDataToSocket ok skid: 11 ret:8 m_bufLen:8 

2025/10/20 11:00:20.836:Tag: 单相智能电表6(6) 等级:错误日志 信息: modbus readDataFromSocketE ok skid: 11 ret:23 expRxLen:23 

2025/10/20 11:00:20.840:Tag: 单相智能电表6(6) 等级:接收报文 信息:06 03 12 50 8b 0b ba 00 00 11 e8 00 00 18 25 00 00 0a 93 00 00 38 b8
2025/10/20 11:00:20.845:Tag: 单相智能电表7(7) 等级:发送报文 信息:07 03 00 02 00 09 24 6a

2025/10/20 11:00:20.849:Tag: 单相智能电表7(7) 等级:信息日志 信息: modbus-> sendDataToSocket ok skid: 11 ret:8 m_bufLen:8 

2025/10/20 11:00:21.159:Tag: 单相智能电表7(7) 等级:错误日志 信息: modbus readDataFromSocketE ok skid: 11 ret:23 expRxLen:23 

2025/10/20 11:00:21.163:Tag: 单相智能电表7(7) 等级:接收报文 信息:07 03 12 4c 1f 02 d0 00 00 05 72 00 00 05 7a 00 00 00 4e 00 00 fd f2
2025/10/20 11:00:21.167:Tag: 单相智能电表8(8) 等级:发送报文 信息:08 03 00 02 00 09 24 95
2025/10/20 11:00:21.171:Tag: 单相智能电表8(8) 等级:信息日志 信息: modbus-> sendDataToSocket ok skid: 11 ret:8 m_bufLen:8 

2025/10/20 11:00:21.480:Tag: 单相智能电表8(8) 等级:错误日志 信息: modbus readDataFromSocketE ok skid: 11 ret:23 expRxLen:23 

2025/10/20 11:00:21.484:Tag: 单相智能电表8(8) 等级:接收报文 信息:08 03 12 4c 6f 07 90 00 00 09 2b 00 00 0e c5 00 00 07 d4 00 00 b5 1b
2025/10/20 11:00:21.488:Tag: 单相智能电表9(9) 等级:发送报文 信息:09 03 00 02 00 09 25 44
2025/10/20 11:00:21.492:Tag: 单相智能电表9(9) 等级:信息日志 信息: modbus-> sendDataToSocket ok skid: 11 ret:8 m_bufLen:8 

2025/10/20 11:00:21.802:Tag: 单相智能电表9(9) 等级:错误日志 信息: modbus readDataFromSocketE ok skid: 11 ret:23 expRxLen:23 


2025/10/20 11:00:21.806:Tag: 单相智能电表9(9) 等级:接收报文 信息:09 03 12 47 21 0c b5 00 00 0d 48 00 00 17 1c 00 00 0d 27 00 00 5a bd
2025/10/20 11:00:21.810:Tag: 三相智能电表1（线路阻抗柜端口2）(51) 等级:发送报文 信息:33 03 00 0a 00 22 e1 c3
2025/10/20 11:00:21.815:Tag: 三相智能电表1（线路阻抗柜端口2）(51) 等级:信息日志 信息: modbus-> sendDataToSocket ok skid: 11 ret:8 m_bufLen:8 

2025/10/20 11:00:22.074:Tag: 三相智能电表1（线路阻抗柜端口2）(51) 等级:错误日志 信息: modbus readDataFromSocketE ok skid: 11 ret:73 expRxLen:73 

2025/10/20 11:00:22.077:Tag: 三相智能电表1（线路阻抗柜端口2）(51) 等级:接收报文 信息:33 03 44 43 4f b3 57 43 50 f9 f1 43 52 7d e8 43 b4 6d 3a 43 b5 a2 ac 43 b5 15 7e 41 02 d5 da 40 a1 3a b0 40 3f 96 90 44 a1 59 13 44 5e 25 6b 44 0d 4a 62 45 2b 88 7c 44 80 7b aa 44 00 a4 7e 43 83 c5 9b 44 e1 bf 4f 51 62
2025/10/20 11:00:22.080:Tag: 三相智能电表2（线路阻抗柜端口4）(52) 等级:发送报文 信息:34 03 00 0a 00 22 e0 74
2025/10/20 11:00:22.083:Tag: 三相智能电表2（线路阻抗柜端口4）(52) 等级:信息日志 信息: modbus-> sendDataToSocket ok skid: 11 ret:8 m_bufLen:8 

2025/10/20 11:00:22.239:Tag: 线路阻抗模拟柜(1543468) 等级:接收报文 信息:0a 6f 00 00 00 af 01 03 ac 43 5c 5f 0b 43 5c 9e 20 43 5d 2b 25 43 be f4 2e 43 bf 4c 92 43 bf 31 44 41 50 4b 1d 41 5d 3e ce 41 4c fb 52 40 0b 00 6a 40 17 4e 1c 40 11 ee 54 40 da 1e 6d 3f ef eb 40 3f f6 ca 68 3f d7 4e 23 40 af 80 f3 00 00 00 00 00 00 00 00 00 00 00 00 41 0c 0c 4b 3f 47 5a c5 42 48 00 00 43 bf 4c 92 41 5d 3e ce 40 17 4e 1c 43 37 d3 ec 43 3c 3d 6f 43 46 77 bd 43 a1 1d 26 43 a7 78 08 43 a5 94 4c 3f 0c 1f 9f 3f 19 26 63 3f 10 d8 48 3d 8d de e2 3d 98 16 85 3d 91 54 1f 3e 5b a4 c1 3d 95 74 b9 3d ad 60 f1 3d b2 3c d8 3e 7a 89 41

2025/10/20 11:00:22.243:Tag: 线路阻抗模拟柜(1543468) 等级:发送报文 信息:0a 70 00 00 00 06 01 03 00 87 00 56
2025/10/20 11:00:22.246:Tag: 线路阻抗模拟柜(1543468) 等级:信息日志 信息: modbus-> sendDataToSocket ok skid: 12 ret:12 m_bufLen:12 

2025/10/20 11:00:22.401:Tag: 三相智能电表2（线路阻抗柜端口4）(52) 等级:错误日志 信息: modbus readDataFromSocketE ok skid: 11 ret:73 expRxLen:73 

2025/10/20 11:00:22.404:Tag: 三相智能电表2（线路阻抗柜端口4）(52) 等级:接收报文 信息:34 03 44 43 3d f8 27 43 47 d9 29 43 4d 97 93 43 a8 d0 66 43 af 91 13 43 ab 53 e0 40 c4 91 24 40 3c f4 16 3f 0c 80 35 44 51 fe 08 43 e5 85 86 42 8c 41 76 44 ab 24 7d 44 34 87 16 43 8e b8 e5 42 71 02 9e 44 85 79 da 96 aa
2025/10/20 11:00:22.407:Tag: 三相智能电表3（线路阻抗柜端口5）(53) 等级:发送报文 信息:35 03 00 0a 00 22 e1 a5
2025/10/20 11:00:22.409:Tag: 三相智能电表3（线路阻抗柜端口5）(53) 等级:信息日志 信息: modbus-> sendDataToSocket ok skid: 11 ret:8 m_bufLen:8 

2025/10/20 11:00:22.715:Tag: 三相智能电表3（线路阻抗柜端口5）(53) 等级:错误日志 信息: modbus readDataFromSocketE ok skid: 11 ret:73 expRxLen:73 

2025/10/20 11:00:22.720:Tag: 三相智能电表3（线路阻抗柜端口5）(53) 等级:接收报文 信息:35 03 44 43 36 df 34 43 44 99 f6 43 4d 08 ae 43 a4 5a 44 43 ad ed 0c 43 a8 0f 3a 40 47 de cc 3f 96 a0 91 3f 0d 7e 24 43 de 31 c8 43 59 2c 06 42 8c 67 ec 44 36 f0 e3 43 84 c7 d6 42 80 cb dc 42 73 42 98 43 c3 63 21 8f c1

2025/10/20 11:00:22.725:Tag: 三相智能电表4（线路阻抗柜端口7）(54) 等级:发送报文 信息:36 03 00 0a 00 22 e1 96
2025/10/20 11:00:22.730:Tag: 三相智能电表4（线路阻抗柜端口7）(54) 等级:信息日志 信息: modbus-> sendDataToSocket ok skid: 11 ret:8 m_bufLen:8 

2025/10/20 11:00:23.040:Tag: 三相智能电表4（线路阻抗柜端口7）(54) 等级:错误日志 信息: modbus readDataFromSocketE ok skid: 11 ret:73 expRxLen:73 

2025/10/20 11:00:23.044:Tag: 三相智能电表4（线路阻抗柜端口7）(54) 等级:接收报文 信息:36 03 44 43 33 2f a0 43 43 72 2f 43 4c 62 2c 43 a2 45 78 43 ad 25 4b 43 a6 35 bb 40 39 5a f2 3f 10 6c c4 3f 0f 08 5b c3 cc 63 54 c2 96 a1 93 c2 89 c5 d6 c4 0a 3e 97 c3 5b 57 58 c2 68 7f 9a c2 7d 4e 65 c3 aa 65 6c bc b3
2025/10/20 11:00:23.049:Tag: 三相智能电表5(55) 等级:发送报文 信息:37 03 00 00 00 22 c0 45
2025/10/20 11:00:23.053:Tag: 三相智能电表5(55) 等级:信息日志 信息: modbus-> sendDataToSocket ok skid: 11 ret:8 m_bufLen:8 

2025/10/20 11:00:23.363:Tag: 三相智能电表5(55) 等级:错误日志 信息: modbus readDataFromSocketE ok skid: 11 ret:73 expRxLen:73 

2025/10/20 11:00:23.368:Tag: 三相智能电表5(55) 等级:接收报文 信息:37 03 44 33 33 43 3d 80 00 43 47 4c cd 43 4c c0 00 43 a7 40 00 43 ae 99 9a 43 ab c0 83 40 2a 3f 7d 40 55 8d 50 40 37 06 25 3f 01 16 1e 3f 2a b5 74 3f 15 68 dc 3f e0 34 d7 3c ef a0 27 3d 09 74 bc 3d 13 57 a8 3d ca ae b3

2025/10/20 11:00:23.373:Tag: 三相智能电表6(56) 等级:发送报文 信息:38 03 00 00 00 22 c0 ba
2025/10/20 11:00:23.378:Tag: 三相智能电表6(56) 等级:信息日志 信息: modbus-> sendDataToSocket ok skid: 11 ret:8 m_bufLen:8 

2025/10/20 11:00:23.637:Tag: 三相智能电表6(56) 等级:错误日志 信息: modbus readDataFromSocketE ok skid: 11 ret:73 expRxLen:73 

2025/10/20 11:00:23.641:Tag: 三相智能电表6(56) 等级:接收报文 信息:38 03 44 00 00 00 00 00 00 00 00 00 00 00 00 00 00 00 00 00 00 00 00 00 00 00 00 00 00 00 00 00 00 00 00 00 00 00 00 00 00 00 00 00 00 00 00 00 00 00 00 00 00 00 00 00 00 00 00 00 00 00 00 00 00 00 00 00 00 00 00 aa a2
2025/10/20 11:00:23.648:Tag: 单相智能电表1(1) 等级:发送报文 信息:01 03 00 02 00 09 24 0c
2025/10/20 11:00:23.652:Tag: 单相智能电表1(1) 等级:信息日志 信息: modbus-> sendDataToSocket ok skid: 11 ret:8 m_bufLen:8 

2025/10/20 11:00:23.962:Tag: 单相智能电表1(1) 等级:错误日志 信息: modbus readDataFromSocketE ok skid: 11 ret:23 expRxLen:23 

2025/10/20 11:00:23.966:Tag: 单相智能电表1(1) 等级:接收报文 信息:01 03 12 4f 79 03 e4 00 00 07 f2 00 00 07 e8 00 00 00 01 00 00 06 2a
2025/10/20 11:00:23.970:Tag: 单相智能电表2(2) 等级:发送报文 信息:02 03 00 02 00 09 24 3f

2025/10/20 11:00:23.975:Tag: 单相智能电表2(2) 等级:信息日志 信息: modbus-> sendDataToSocket ok skid: 11 ret:8 m_bufLen:8 

2025/10/20 11:00:24.286:Tag: 单相智能电表2(2) 等级:错误日志 信息: modbus readDataFromSocketE ok skid: 11 ret:23 expRxLen:23 

2025/10/20 11:00:24.289:Tag: 单相智能电表2(2) 等级:接收报文 信息:02 03 12 4f 6f 12 57 00 00 1b ce 00 00 25 41 00 00 10 26 00 00 fb eb
2025/10/20 11:00:24.293:Tag: 单相智能电表3(3) 等级:发送报文 信息:03 03 00 02 00 09 25 ee
2025/10/20 11:00:24.296:Tag: 单相智能电表3(3) 等级:信息日志 信息: modbus-> sendDataToSocket ok skid: 11 ret:8 m_bufLen:8 

2025/10/20 11:00:24.604:Tag: 单相智能电表3(3) 等级:错误日志 信息: modbus readDataFromSocketE ok skid: 11 ret:23 expRxLen:23 

2025/10/20 11:00:24.607:Tag: 单相智能电表3(3) 等级:接收报文 信息:03 03 12 4f c5 08 39 00 00 05 98 00 00 10 c5 00 00 09 c5 00 00 16 d5
2025/10/20 11:00:24.610:Tag: 单相智能电表4(4) 等级:发送报文 信息:04 03 00 02 00 09 24 59
2025/10/20 11:00:24.612:Tag: 单相智能电表4(4) 等级:信息日志 信息: modbus-> sendDataToSocket ok skid: 11 ret:8 m_bufLen:8 

2025/10/20 11:00:24.868:Tag: 单相智能电表4(4) 等级:错误日志 信息: modbus readDataFromSocketE ok skid: 11 ret:23 expRxLen:23 


2025/10/20 11:00:24.870:Tag: 单相智能电表4(4) 等级:接收报文 信息:04 03 12 51 30 0c 21 00 00 13 07 00 00 19 2b 00 00 0a ba 00 00 b0 fe
2025/10/20 11:00:24.873:Tag: 单相智能电表5(5) 等级:发送报文 信息:05 03 00 02 00 09 25 88
2025/10/20 11:00:24.877:Tag: 单相智能电表5(5) 等级:信息日志 信息: modbus-> sendDataToSocket ok skid: 11 ret:8 m_bufLen:8 

2025/10/20 11:00:25.136:Tag: 可控三项负载柜(1543484) 等级:接收报文 信息:0a 72 00 00 00 47 01 03 44 43 46 fc 2d 43 4c 11 ac 43 4f 6a 41 43 ae 88 3c 43 b2 2e 07 43 af fd 32 3f ac 10 e8 3f b1 34 7d 3f b6 2d c5 3e 5f 56 86 3e 6a f6 be 3e 74 7e 6c 3f 2f b2 ec 3e 1b 26 50 3e 26 12 ff 3e 2d d0 3f 3e f7 84 c8
2025/10/20 11:00:25.140:Tag: 可控三项负载柜(1543484) 等级:发送报文 信息:0a 73 00 00 00 06 01 03 00 96 00 22
2025/10/20 11:00:25.144:Tag: 可控三项负载柜(1543484) 等级:信息日志 信息: modbus-> sendDataToSocket ok skid: 10 ret:12 m_bufLen:12 

2025/10/20 11:00:25.198:Tag: 单相智能电表5(5) 等级:错误日志 信息: modbus readDataFromSocketE ok skid: 11 ret:23 expRxLen:23 

2025/10/20 11:00:25.215:Tag: 单相智能电表5(5) 等级:接收报文 信息:05 03 12 50 02 0b 52 00 00 10 ad 00 00 17 28 00 00 0a 87 00 00 31 35

2025/10/20 11:00:25.221:Tag: 单相智能电表6(6) 等级:发送报文 信息:06 03 00 02 00 09 25 bb
2025/10/20 11:00:25.226:Tag: 单相智能电表6(6) 等级:信息日志 信息: modbus-> sendDataToSocket ok skid: 11 ret:8 m_bufLen:8 

2025/10/20 11:00:25.541:Tag: 单相智能电表6(6) 等级:错误日志 信息: modbus readDataFromSocketE ok skid: 11 ret:23 expRxLen:23 

2025/10/20 11:00:25.545:Tag: 单相智能电表6(6) 等级:接收报文 信息:06 03 12 50 8a 0b ba 00 00 11 e9 00 00 18 25 00 00 0a 93 00 00 6d d4
2025/10/20 11:00:25.549:Tag: 单相智能电表7(7) 等级:发送报文 信息:07 03 00 02 00 09 24 6a
2025/10/20 11:00:25.553:Tag: 单相智能电表7(7) 等级:信息日志 信息: modbus-> sendDataToSocket ok skid: 11 ret:8 m_bufLen:8 

2025/10/20 11:00:25.862:Tag: 单相智能电表7(7) 等级:错误日志 信息: modbus readDataFromSocketE ok skid: 11 ret:23 expRxLen:23 

2025/10/20 11:00:25.866:Tag: 单相智能电表7(7) 等级:接收报文 信息:07 03 12 4c 27 02 ce 00 00 05 6e 00 00 05 75 00 00 00 4b 00 00 74 a6
2025/10/20 11:00:25.870:Tag: 单相智能电表8(8) 等级:发送报文 信息:08 03 00 02 00 09 24 95
2025/10/20 11:00:25.874:Tag: 单相智能电表8(8) 等级:信息日志 信息: modbus-> sendDataToSocket ok skid: 11 ret:8 m_bufLen:8 


2025/10/20 11:00:26.133:Tag: 单相智能电表8(8) 等级:错误日志 信息: modbus readDataFromSocketE ok skid: 11 ret:23 expRxLen:23 

2025/10/20 11:00:26.137:Tag: 单相智能电表8(8) 等级:接收报文 信息:08 03 12 4c 76 07 90 00 00 09 2e 00 00 0e c8 00 00 07 d5 00 00 f2 40
2025/10/20 11:00:26.141:Tag: 单相智能电表9(9) 等级:发送报文 信息:09 03 00 02 00 09 25 44
2025/10/20 11:00:26.145:Tag: 单相智能电表9(9) 等级:信息日志 信息: modbus-> sendDataToSocket ok skid: 11 ret:8 m_bufLen:8 

2025/10/20 11:00:26.455:Tag: 单相智能电表9(9) 等级:错误日志 信息: modbus readDataFromSocketE ok skid: 11 ret:23 expRxLen:23 

2025/10/20 11:00:26.459:Tag: 单相智能电表9(9) 等级:接收报文 信息:09 03 12 47 1a 0c bb 00 00 0d 53 00 00 17 23 00 00 0d 28 00 00 39 60
2025/10/20 11:00:26.463:Tag: 可控调压4(24) 等级:发送控制命令报文 信息:18 06 00 01 00 3b 9b d0
2025/10/20 11:00:26.774:Tag: 可控调压4(24) 等级:接收控制命令报文返回 信息:18 06 00 01 00 3b 9b d0
2025/10/20 11:00:26.778:Tag: 可控调压5(25) 等级:发送控制命令报文 信息:19 06 00 01 00 40 da 22
2025/10/20 11:00:27.088:Tag: 可控调压5(25) 等级:接收控制命令报文返回 信息:19 06 00 01 00 40 da 22
2025/10/20 11:00:27.091:Tag: 三相智能电表1（线路阻抗柜端口2）(51) 等级:发送报文 信息:33 03 00 0a 00 22 e1 c3

2025/10/20 11:00:27.095:Tag: 三相智能电表1（线路阻抗柜端口2）(51) 等级:信息日志 信息: modbus-> sendDataToSocket ok skid: 11 ret:8 m_bufLen:8 

2025/10/20 11:00:27.251:Tag: 线路阻抗模拟柜(1543468) 等级:接收报文 信息:0a 70 00 00 00 af 01 03 ac 43 5c 6c 86 43 5c 97 4c 43 5d 33 4d 43 be f7 0e 43 bf 4d 24 43 bf 3a a2 41 50 3d cd 41 5d 3c 42 41 4d 3a 5a 40 0a ef 38 40 17 46 8c 40 12 25 59 40 da 2d 8f 3f f0 11 89 3f f6 c2 b7 3f d7 8b 66 40 af 97 ea 00 00 00 00 00 00 00 00 00 00 00 00 41 0c 19 b6 3f 47 55 81 42 48 00 00 43 bf 4d 24 41 5d 3c 42 40 17 46 8c 43 37 68 15 43 3c 09 56 43 46 50 6d 43 a0 d7 fe 43 a7 50 80 43 a5 54 fa 3f 0b 94 58 3f 18 fd 74 3f 10 2f fd 3d 8c b6 92 3d 99 75 8c 3d 91 3e 29 3e 5b b5 23 3d 96 41 7c 3d ad 44 67 3d b1 e3 f6 3e 7a b4 ec
2025/10/20 11:00:27.255:Tag: 线路阻抗模拟柜(1543468) 等级:发送报文 信息:0a 71 00 00 00 06 01 03 00 87 00 56
2025/10/20 11:00:27.258:Tag: 线路阻抗模拟柜(1543468) 等级:信息日志 信息: modbus-> sendDataToSocket ok skid: 12 ret:12 m_bufLen:12 

2025/10/20 11:00:27.414:Tag: 三相智能电表1（线路阻抗柜端口2）(51) 等级:错误日志 信息: modbus readDataFromSocketE ok skid: 11 ret:73 expRxLen:73 


2025/10/20 11:00:27.417:Tag: 三相智能电表1（线路阻抗柜端口2）(51) 等级:接收报文 信息:33 03 44 43 4f 74 f6 43 50 f3 6e 43 52 42 cc 43 b4 4f 6c 43 b5 86 3b 43 b4 e0 e4 41 02 b2 8e 40 a0 d7 17 40 3f 72 87 44 a1 02 d8 44 5d 85 36 44 0d 03 19 45 2b 23 80 44 80 33 6c 44 00 54 77 43 83 82 82 44 e1 3e 48 38 42
2025/10/20 11:00:27.420:Tag: 三相智能电表2（线路阻抗柜端口4）(52) 等级:发送报文 信息:34 03 00 0a 00 22 e0 74
2025/10/20 11:00:27.423:Tag: 三相智能电表2（线路阻抗柜端口4）(52) 等级:信息日志 信息: modbus-> sendDataToSocket ok skid: 11 ret:8 m_bufLen:8 

2025/10/20 11:00:27.730:Tag: 三相智能电表2（线路阻抗柜端口4）(52) 等级:错误日志 信息: modbus readDataFromSocketE ok skid: 11 ret:73 expRxLen:73 

2025/10/20 11:00:27.733:Tag: 三相智能电表2（线路阻抗柜端口4）(52) 等级:接收报文 信息:34 03 44 43 3e 33 a9 43 47 cd 0e 43 4d 88 39 43 a8 e4 aa 43 af 85 2e 43 ab 66 92 40 c0 eb e0 40 3b af af 3f 0c 26 dd 44 4d b9 6f 43 e4 0b 8e 42 8c 5c fb 44 a8 a5 6a 44 32 6b 39 43 8e 44 d7 42 6f e4 ea 44 84 45 fa 93 3c
2025/10/20 11:00:27.736:Tag: 三相智能电表3（线路阻抗柜端口5）(53) 等级:发送报文 信息:35 03 00 0a 00 22 e1 a5
2025/10/20 11:00:27.738:Tag: 三相智能电表3（线路阻抗柜端口5）(53) 等级:信息日志 信息: modbus-> sendDataToSocket ok skid: 11 ret:8 m_bufLen:8 


2025/10/20 11:00:27.993:Tag: 三相智能电表3（线路阻抗柜端口5）(53) 等级:错误日志 信息: modbus readDataFromSocketE ok skid: 11 ret:73 expRxLen:73 

2025/10/20 11:00:27.996:Tag: 三相智能电表3（线路阻抗柜端口5）(53) 等级:接收报文 信息:35 03 44 43 36 ed aa 43 44 84 d5 43 4c f9 c3 43 a4 57 32 43 ad dd 75 43 a8 0e ca 40 48 0b ac 3f 95 91 1b 3f 0d 8c 01 43 de c6 f6 43 57 a5 da 42 8d 2d 0b 44 36 f2 94 43 83 85 2e 42 80 14 e0 42 72 4f e6 43 c1 d4 63 d8 b3
2025/10/20 11:00:27.999:Tag: 三相智能电表4（线路阻抗柜端口7）(54) 等级:发送报文 信息:36 03 00 0a 00 22 e1 96
2025/10/20 11:00:28.001:Tag: 三相智能电表4（线路阻抗柜端口7）(54) 等级:信息日志 信息: modbus-> sendDataToSocket ok skid: 11 ret:8 m_bufLen:8 

2025/10/20 11:00:28.309:Tag: 三相智能电表4（线路阻抗柜端口7）(54) 等级:错误日志 信息: modbus readDataFromSocketE ok skid: 11 ret:73 expRxLen:73 

2025/10/20 11:00:28.313:Tag: 三相智能电表4（线路阻抗柜端口7）(54) 等级:接收报文 信息:36 03 44 43 33 69 2b 43 43 86 5b 43 4c 56 58 43 a2 66 e1 43 ad 28 ce 43 a6 48 dc 40 39 b3 8b 3f 11 46 bb 3f 0e 53 73 c3 cd 15 90 c2 97 47 2e c2 88 c3 0f c4 0a 8c 10 c3 58 f5 07 c2 6a 05 74 c2 7c 89 44 c3 a9 4c 5b ea 3d

2025/10/20 11:00:28.319:Tag: 三相智能电表5(55) 等级:发送报文 信息:37 03 00 00 00 22 c0 45
2025/10/20 11:00:28.323:Tag: 三相智能电表5(55) 等级:信息日志 信息: modbus-> sendDataToSocket ok skid: 11 ret:8 m_bufLen:8 

2025/10/20 11:00:28.631:Tag: 三相智能电表5(55) 等级:错误日志 信息: modbus readDataFromSocketE ok skid: 11 ret:73 expRxLen:73 

2025/10/20 11:00:28.635:Tag: 三相智能电表5(55) 等级:接收报文 信息:37 03 44 99 9a 43 3d 80 00 43 47 4c cd 43 4c 00 00 43 a8 40 00 43 ae b3 33 43 ab 02 0c 40 2b 3f 7d 40 55 8d 50 40 37 6f 00 3f 01 16 1e 3f 2a b5 74 3f 15 aa 65 3f e0 34 d7 3c ef fc b9 3d 07 74 bc 3d 13 57 a8 3d ca 27 d0
2025/10/20 11:00:28.639:Tag: 三相智能电表6(56) 等级:发送报文 信息:38 03 00 00 00 22 c0 ba
2025/10/20 11:00:28.642:Tag: 三相智能电表6(56) 等级:信息日志 信息: modbus-> sendDataToSocket ok skid: 11 ret:8 m_bufLen:8 

2025/10/20 11:00:28.950:Tag: 三相智能电表6(56) 等级:错误日志 信息: modbus readDataFromSocketE ok skid: 11 ret:73 expRxLen:73 

2025/10/20 11:00:28.952:Tag: 三相智能电表6(56) 等级:接收报文 信息:38 03 44 00 00 00 00 00 00 00 00 00 00 00 00 00 00 00 00 00 00 00 00 00 00 00 00 00 00 00 00 00 00 00 00 00 00 00 00 00 00 00 00 00 00 00 00 00 00 00 00 00 00 00 00 00 00 00 00 00 00 00 00 00 00 00 00 00 00 00 00 aa a2

2025/10/20 11:00:28.956:Tag: 单相智能电表1(1) 等级:发送报文 信息:01 03 00 02 00 09 24 0c
2025/10/20 11:00:28.959:Tag: 单相智能电表1(1) 等级:信息日志 信息: modbus-> sendDataToSocket ok skid: 11 ret:8 m_bufLen:8 

2025/10/20 11:00:29.267:Tag: 单相智能电表1(1) 等级:错误日志 信息: modbus readDataFromSocketE ok skid: 11 ret:23 expRxLen:23 

2025/10/20 11:00:29.269:Tag: 单相智能电表1(1) 等级:接收报文 信息:01 03 12 4f 75 03 e4 00 00 07 f1 00 00 07 e7 00 00 00 02 00 00 c3 6d
2025/10/20 11:00:29.272:Tag: 单相智能电表2(2) 等级:发送报文 信息:02 03 00 02 00 09 24 3f
2025/10/20 11:00:29.274:Tag: 单相智能电表2(2) 等级:信息日志 信息: modbus-> sendDataToSocket ok skid: 11 ret:8 m_bufLen:8 

2025/10/20 11:00:29.529:Tag: 单相智能电表2(2) 等级:错误日志 信息: modbus readDataFromSocketE ok skid: 11 ret:23 expRxLen:23 

2025/10/20 11:00:29.532:Tag: 单相智能电表2(2) 等级:接收报文 信息:02 03 12 4f 72 12 58 00 00 1b d2 00 00 25 44 00 00 10 26 00 00 13 29
2025/10/20 11:00:29.535:Tag: 单相智能电表3(3) 等级:发送报文 信息:03 03 00 02 00 09 25 ee
2025/10/20 11:00:29.538:Tag: 单相智能电表3(3) 等级:信息日志 信息: modbus-> sendDataToSocket ok skid: 11 ret:8 m_bufLen:8 


2025/10/20 11:00:29.847:Tag: 单相智能电表3(3) 等级:错误日志 信息: modbus readDataFromSocketE ok skid: 11 ret:23 expRxLen:23 

2025/10/20 11:00:29.849:Tag: 单相智能电表3(3) 等级:接收报文 信息:03 03 12 4f cb 08 3c 00 00 05 9a 00 00 10 cb 00 00 09 ca 00 00 63 ce
2025/10/20 11:00:29.852:Tag: 单相智能电表4(4) 等级:发送报文 信息:04 03 00 02 00 09 24 59
2025/10/20 11:00:29.854:Tag: 单相智能电表4(4) 等级:信息日志 信息: modbus-> sendDataToSocket ok skid: 11 ret:8 m_bufLen:8 

2025/10/20 11:00:30.161:Tag: 可控三项负载柜(1543484) 等级:接收报文 信息:0a 73 00 00 00 47 01 03 44 43 46 f6 5a 43 4b f4 3a 43 4f 64 5f 43 ae 78 ec 43 b2 1e c2 43 af f8 1f 3f ab c6 bb 3f b1 1d da 3f b6 94 04 3e 5f 18 28 3e 69 ef d4 3e 75 35 b9 3f 2f 8f 6d 3e 1b 04 ca 3e 26 98 34 3e 2e 4b 34 3e f7 f4 19
2025/10/20 11:00:30.166:Tag: 可控三项负载柜(1543484) 等级:发送报文 信息:0a 74 00 00 00 06 01 03 00 96 00 22
2025/10/20 11:00:30.170:Tag: 可控三项负载柜(1543484) 等级:信息日志 信息: modbus-> sendDataToSocket ok skid: 10 ret:12 m_bufLen:12 

2025/10/20 11:00:30.174:Tag: 单相智能电表4(4) 等级:错误日志 信息: modbus readDataFromSocketE ok skid: 11 ret:23 expRxLen:23 


2025/10/20 11:00:30.179:Tag: 单相智能电表4(4) 等级:接收报文 信息:04 03 12 51 33 0c 21 00 00 13 08 00 00 19 2d 00 00 0a bc 00 00 f6 1b
2025/10/20 11:00:30.183:Tag: 单相智能电表5(5) 等级:发送报文 信息:05 03 00 02 00 09 25 88
2025/10/20 11:00:30.187:Tag: 单相智能电表5(5) 等级:信息日志 信息: modbus-> sendDataToSocket ok skid: 11 ret:8 m_bufLen:8 

2025/10/20 11:00:30.499:Tag: 单相智能电表5(5) 等级:错误日志 信息: modbus readDataFromSocketE ok skid: 11 ret:23 expRxLen:23 

2025/10/20 11:00:30.503:Tag: 单相智能电表5(5) 等级:接收报文 信息:05 03 12 50 09 0b 53 00 00 10 af 00 00 17 2c 00 00 0a 89 00 00 a8 bc
2025/10/20 11:00:30.507:Tag: 单相智能电表6(6) 等级:发送报文 信息:06 03 00 02 00 09 25 bb
2025/10/20 11:00:30.510:Tag: 单相智能电表6(6) 等级:信息日志 信息: modbus-> sendDataToSocket ok skid: 11 ret:8 m_bufLen:8 

2025/10/20 11:00:30.819:Tag: 单相智能电表6(6) 等级:错误日志 信息: modbus readDataFromSocketE ok skid: 11 ret:23 expRxLen:23 

2025/10/20 11:00:30.822:Tag: 单相智能电表6(6) 等级:接收报文 信息:06 03 12 50 a2 0b bf 00 00 11 f8 00 00 18 37 00 00 0a 98 00 00 25 20
2025/10/20 11:00:30.824:Tag: 单相智能电表7(7) 等级:发送报文 信息:07 03 00 02 00 09 24 6a

2025/10/20 11:00:30.828:Tag: 单相智能电表7(7) 等级:信息日志 信息: modbus-> sendDataToSocket ok skid: 11 ret:8 m_bufLen:8 

2025/10/20 11:00:31.135:Tag: 单相智能电表7(7) 等级:错误日志 信息: modbus readDataFromSocketE ok skid: 11 ret:23 expRxLen:23 

2025/10/20 11:00:31.139:Tag: 单相智能电表7(7) 等级:接收报文 信息:07 03 12 4c 29 02 cc 00 00 05 6c 00 00 05 73 00 00 00 4a 00 00 ae bc
2025/10/20 11:00:31.143:Tag: 单相智能电表8(8) 等级:发送报文 信息:08 03 00 02 00 09 24 95
2025/10/20 11:00:31.147:Tag: 单相智能电表8(8) 等级:信息日志 信息: modbus-> sendDataToSocket ok skid: 11 ret:8 m_bufLen:8 

2025/10/20 11:00:31.406:Tag: 单相智能电表8(8) 等级:错误日志 信息: modbus readDataFromSocketE ok skid: 11 ret:23 expRxLen:23 

2025/10/20 11:00:31.409:Tag: 单相智能电表8(8) 等级:接收报文 信息:08 03 12 4c 7c 07 78 00 00 08 f5 00 00 0e 9a 00 00 07 ce 00 00 4f 4a
2025/10/20 11:00:31.412:Tag: 单相智能电表9(9) 等级:发送报文 信息:09 03 00 02 00 09 25 44
2025/10/20 11:00:31.415:Tag: 单相智能电表9(9) 等级:信息日志 信息: modbus-> sendDataToSocket ok skid: 11 ret:8 m_bufLen:8 

2025/10/20 11:00:31.723:Tag: 单相智能电表9(9) 等级:错误日志 信息: modbus readDataFromSocketE ok skid: 11 ret:23 expRxLen:23 


2025/10/20 11:00:31.726:Tag: 单相智能电表9(9) 等级:接收报文 信息:09 03 12 47 52 0c 5b 00 00 0c 92 00 00 16 87 00 00 0d 03 00 00 3e 0c
2025/10/20 11:00:31.728:Tag: 可控调压6(26) 等级:发送控制命令报文 信息:1a 06 00 01 00 41 1b d1
2025/10/20 11:00:32.034:Tag: 可控调压6(26) 等级:接收控制命令报文返回 信息:1a 06 00 01 00 41 1b d1
2025/10/20 11:00:32.036:Tag: 三相智能电表1（线路阻抗柜端口2）(51) 等级:发送报文 信息:33 03 00 0a 00 22 e1 c3
2025/10/20 11:00:32.039:Tag: 三相智能电表1（线路阻抗柜端口2）(51) 等级:信息日志 信息: modbus-> sendDataToSocket ok skid: 11 ret:8 m_bufLen:8 

2025/10/20 11:00:32.245:Tag: 线路阻抗模拟柜(1543468) 等级:接收报文 信息:0a 71 00 00 00 af 01 03 ac 43 5c 49 7b 43 5c 86 e0 43 5d 23 1d 43 be e0 c6 43 bf 3f 06 43 bf 24 74 41 4f bd ab 41 5c 59 4b 41 4c 8d a5 40 0a 79 11 40 16 7e f1 40 11 85 47 40 d9 3e a5 3f ef 70 57 3f f6 04 96 3f d7 0d e0 40 af 20 b3 00 00 00 00 00 00 00 00 00 00 00 00 41 0b 96 fc 3f 47 35 19 42 47 fa e2 43 bf 3f 06 41 5c 59 4b 40 16 7e f1 43 37 cd 34 43 3c 46 e3 43 46 77 18 43 a1 1e 5c 43 a7 7b ce 43 a5 91 24 3f 0c 46 20 3f 19 2b 03 3f 10 d2 98 3d 8c d2 7c 3d 98 e0 09 3d 91 10 74 3e 5b 61 7c 3d 96 b4 ee 3d ac c8 1f 3d b2 67 57 3e 7a f2 32

2025/10/20 11:00:32.252:Tag: 线路阻抗模拟柜(1543468) 等级:发送报文 信息:0a 72 00 00 00 06 01 03 00 87 00 56
2025/10/20 11:00:32.256:Tag: 线路阻抗模拟柜(1543468) 等级:信息日志 信息: modbus-> sendDataToSocket ok skid: 12 ret:12 m_bufLen:12 

2025/10/20 11:00:32.362:Tag: 三相智能电表1（线路阻抗柜端口2）(51) 等级:错误日志 信息: modbus readDataFromSocketE ok skid: 11 ret:73 expRxLen:73 

2025/10/20 11:00:32.367:Tag: 三相智能电表1（线路阻抗柜端口2）(51) 等级:接收报文 信息:33 03 44 43 4f be ad 43 51 26 4f 43 52 58 ae 43 b4 85 5c 43 b5 a5 ba 43 b5 0a 3c 41 00 f7 ca 40 9f db da 40 3f 99 35 44 9e e7 ae 44 5c 36 89 44 0d 37 5a 45 29 cf 4f 44 7e 39 e5 44 00 12 c0 43 83 c6 36 44 e0 17 e0 4e b9
2025/10/20 11:00:32.372:Tag: 三相智能电表2（线路阻抗柜端口4）(52) 等级:发送报文 信息:34 03 00 0a 00 22 e0 74
2025/10/20 11:00:32.378:Tag: 三相智能电表2（线路阻抗柜端口4）(52) 等级:信息日志 信息: modbus-> sendDataToSocket ok skid: 11 ret:8 m_bufLen:8 

2025/10/20 11:00:32.689:Tag: 三相智能电表2（线路阻抗柜端口4）(52) 等级:错误日志 信息: modbus readDataFromSocketE ok skid: 11 ret:73 expRxLen:73 

2025/10/20 11:00:32.694:Tag: 三相智能电表2（线路阻抗柜端口4）(52) 等级:接收报文 信息:34 03 44 43 3e 67 c9 43 48 10 39 43 4d a7 b1 43 a9 18 5e 43 af af d2 43 ab 8a a4 40 c1 10 d8 40 3a f3 b6 3f 0c 2a cc 44 4d da 63 43 e2 ea aa 42 8c 9a 9a 44 a8 71 86 44 32 d6 9c 43 8e 2f 77 42 6f ec 64 44 84 76 8f 4e 5e

2025/10/20 11:00:32.700:Tag: 三相智能电表3（线路阻抗柜端口5）(53) 等级:发送报文 信息:35 03 00 0a 00 22 e1 a5
2025/10/20 11:00:32.704:Tag: 三相智能电表3（线路阻抗柜端口5）(53) 等级:信息日志 信息: modbus-> sendDataToSocket ok skid: 11 ret:8 m_bufLen:8 

2025/10/20 11:00:32.963:Tag: 三相智能电表3（线路阻抗柜端口5）(53) 等级:错误日志 信息: modbus readDataFromSocketE ok skid: 11 ret:73 expRxLen:73 

2025/10/20 11:00:32.967:Tag: 三相智能电表3（线路阻抗柜端口5）(53) 等级:接收报文 信息:35 03 44 43 37 79 0d 43 45 09 a7 43 4d 20 70 43 a4 cd 01 43 ae 27 6f 43 a8 5b 09 40 48 44 96 3f 95 48 2b 3f 0d b0 7a 43 df 64 28 43 57 3a 7b 42 8c da 8e 44 37 1c 04 43 83 78 73 42 7e 44 95 42 71 ae 26 43 c1 76 ca 74 ae
2025/10/20 11:00:32.972:Tag: 三相智能电表4（线路阻抗柜端口7）(54) 等级:发送报文 信息:36 03 00 0a 00 22 e1 96
2025/10/20 11:00:32.976:Tag: 三相智能电表4（线路阻抗柜端口7）(54) 等级:信息日志 信息: modbus-> sendDataToSocket ok skid: 11 ret:8 m_bufLen:8 

2025/10/20 11:00:33.288:Tag: 三相智能电表4（线路阻抗柜端口7）(54) 等级:错误日志 信息: modbus readDataFromSocketE ok skid: 11 ret:73 expRxLen:73 

2025/10/20 11:00:33.293:Tag: 三相智能电表4（线路阻抗柜端口7）(54) 等级:接收报文 信息:36 03 44 43 33 92 a1 43 43 9a a9 43 4c 5a 99 43 a2 81 7c 43 ad 33 63 43 a6 5c 4a 40 39 f7 7d 3f 11 3c f9 3f 0e 96 cc c3 cd c0 47 c2 97 24 87 c2 89 a8 a8 c4 0a f9 c9 c3 57 82 9e c2 69 31 fe c2 7d 20 ca c3 a8 8b a8 e7 28

2025/10/20 11:00:33.298:Tag: 三相智能电表5(55) 等级:发送报文 信息:37 03 00 00 00 22 c0 45
2025/10/20 11:00:33.303:Tag: 三相智能电表5(55) 等级:信息日志 信息: modbus-> sendDataToSocket ok skid: 11 ret:8 m_bufLen:8 

2025/10/20 11:00:33.613:Tag: 三相智能电表5(55) 等级:错误日志 信息: modbus readDataFromSocketE ok skid: 11 ret:73 expRxLen:73 

2025/10/20 11:00:33.617:Tag: 三相智能电表5(55) 等级:接收报文 信息:37 03 44 99 9a 43 3d 99 9a 43 47 4c cd 43 4c 00 00 43 a8 59 9a 43 ae a6 66 43 ab 02 0c 40 2b 3f 7d 40 55 8d 50 40 37 89 37 3f 01 16 1e 3f 2a b5 74 3f 15 aa 65 3f e0 34 d7 3c ef a0 27 3d 09 74 bc 3d 13 57 a8 3d ca 49 e3
2025/10/20 11:00:33.622:Tag: 三相智能电表6(56) 等级:发送报文 信息:38 03 00 00 00 22 c0 ba
2025/10/20 11:00:33.626:Tag: 三相智能电表6(56) 等级:信息日志 信息: modbus-> sendDataToSocket ok skid: 11 ret:8 m_bufLen:8 

2025/10/20 11:00:33.936:Tag: 三相智能电表6(56) 等级:错误日志 信息: modbus readDataFromSocketE ok skid: 11 ret:73 expRxLen:73 

2025/10/20 11:00:33.940:Tag: 三相智能电表6(56) 等级:接收报文 信息:38 03 44 00 00 00 00 00 00 00 00 00 00 00 00 00 00 00 00 00 00 00 00 00 00 00 00 00 00 00 00 00 00 00 00 00 00 00 00 00 00 00 00 00 00 00 00 00 00 00 00 00 00 00 00 00 00 00 00 00 00 00 00 00 00 00 00 00 00 00 00 aa a2

2025/10/20 11:00:33.947:Tag: 单相智能电表1(1) 等级:发送报文 信息:01 03 00 02 00 09 24 0c
2025/10/20 11:00:33.952:Tag: 单相智能电表1(1) 等级:信息日志 信息: modbus-> sendDataToSocket ok skid: 11 ret:8 m_bufLen:8 

2025/10/20 11:00:34.210:Tag: 单相智能电表1(1) 等级:错误日志 信息: modbus readDataFromSocketE ok skid: 11 ret:23 expRxLen:23 

2025/10/20 11:00:34.215:Tag: 单相智能电表1(1) 等级:接收报文 信息:01 03 12 4f 7d 03 e5 00 00 07 f3 00 00 07 e9 00 00 00 02 00 00 61 d7
2025/10/20 11:00:34.220:Tag: 单相智能电表2(2) 等级:发送报文 信息:02 03 00 02 00 09 24 3f
2025/10/20 11:00:34.223:Tag: 单相智能电表2(2) 等级:信息日志 信息: modbus-> sendDataToSocket ok skid: 11 ret:8 m_bufLen:8 

2025/10/20 11:00:34.535:Tag: 单相智能电表2(2) 等级:错误日志 信息: modbus readDataFromSocketE ok skid: 11 ret:23 expRxLen:23 

2025/10/20 11:00:34.539:Tag: 单相智能电表2(2) 等级:接收报文 信息:02 03 12 4f 74 12 58 00 00 1b d2 00 00 25 44 00 00 10 26 00 00 f0 88
2025/10/20 11:00:34.543:Tag: 单相智能电表3(3) 等级:发送报文 信息:03 03 00 02 00 09 25 ee
2025/10/20 11:00:34.547:Tag: 单相智能电表3(3) 等级:信息日志 信息: modbus-> sendDataToSocket ok skid: 11 ret:8 m_bufLen:8 


2025/10/20 11:00:34.857:Tag: 单相智能电表3(3) 等级:错误日志 信息: modbus readDataFromSocketE ok skid: 11 ret:23 expRxLen:23 

2025/10/20 11:00:34.861:Tag: 单相智能电表3(3) 等级:接收报文 信息:03 03 12 4f c8 08 39 00 00 05 98 00 00 10 c6 00 00 09 c6 00 00 41 46
2025/10/20 11:00:34.865:Tag: 单相智能电表4(4) 等级:发送报文 信息:04 03 00 02 00 09 24 59
2025/10/20 11:00:34.869:Tag: 单相智能电表4(4) 等级:信息日志 信息: modbus-> sendDataToSocket ok skid: 11 ret:8 m_bufLen:8 

2025/10/20 11:00:35.128:Tag: 可控三项负载柜(1543484) 等级:接收报文 信息:0a 74 00 00 00 47 01 03 44 43 47 50 73 43 4c 2e 4c 43 4f 7e 7d 43 ae b9 06 43 b2 43 2d 43 b0 2a 40 3f ac 35 1e 3f b0 ff a3 3f b6 67 0b 3e 5f f3 7e 3e 6a 3c 72 3e 74 bb 6f 3f 2f ba d8 3e 1b cf 92 3e 26 2e a0 3e 2e 78 99 3e f8 3b 65
2025/10/20 11:00:35.133:Tag: 可控三项负载柜(1543484) 等级:发送报文 信息:0a 75 00 00 00 06 01 03 00 96 00 22
2025/10/20 11:00:35.137:Tag: 可控三项负载柜(1543484) 等级:信息日志 信息: modbus-> sendDataToSocket ok skid: 10 ret:12 m_bufLen:12 

2025/10/20 11:00:35.141:Tag: 单相智能电表4(4) 等级:错误日志 信息: modbus readDataFromSocketE ok skid: 11 ret:23 expRxLen:23 


2025/10/20 11:00:35.146:Tag: 单相智能电表4(4) 等级:接收报文 信息:04 03 12 51 31 0c 21 00 00 13 06 00 00 19 2c 00 00 0a bc 00 00 73 53
2025/10/20 11:00:35.150:Tag: 单相智能电表5(5) 等级:发送报文 信息:05 03 00 02 00 09 25 88
2025/10/20 11:00:35.154:Tag: 单相智能电表5(5) 等级:信息日志 信息: modbus-> sendDataToSocket ok skid: 11 ret:8 m_bufLen:8 

2025/10/20 11:00:35.464:Tag: 单相智能电表5(5) 等级:错误日志 信息: modbus readDataFromSocketE ok skid: 11 ret:23 expRxLen:23 

2025/10/20 11:00:35.468:Tag: 单相智能电表5(5) 等级:接收报文 信息:05 03 12 50 06 0b 51 00 00 10 a8 00 00 17 26 00 00 0a 89 00 00 af 3a
2025/10/20 11:00:35.473:Tag: 单相智能电表6(6) 等级:发送报文 信息:06 03 00 02 00 09 25 bb
2025/10/20 11:00:35.477:Tag: 单相智能电表6(6) 等级:信息日志 信息: modbus-> sendDataToSocket ok skid: 11 ret:8 m_bufLen:8 

2025/10/20 11:00:35.788:Tag: 单相智能电表6(6) 等级:错误日志 信息: modbus readDataFromSocketE ok skid: 11 ret:23 expRxLen:23 

2025/10/20 11:00:36.064:Tag: 单相智能电表6(6) 等级:接收报文 信息:06 03 12 50 9d 0b bd 00 00 11 f3 00 00 18 33 00 00 0a 97 00 00 d6 3a
2025/10/20 11:00:36.068:Tag: 单相智能电表7(7) 等级:发送报文 信息:07 03 00 02 00 09 24 6a

2025/10/20 11:00:36.073:Tag: 单相智能电表7(7) 等级:信息日志 信息: modbus-> sendDataToSocket ok skid: 11 ret:8 m_bufLen:8 

2025/10/20 11:00:36.077:Tag: 单相智能电表7(7) 等级:错误日志 信息: modbus readDataFromSocketE ok skid: 11 ret:23 expRxLen:23 

2025/10/20 11:00:36.082:Tag: 单相智能电表7(7) 等级:接收报文 信息:07 03 12 4c 27 02 cb 00 00 05 6a 00 00 05 70 00 00 00 48 00 00 01 95
2025/10/20 11:00:36.086:Tag: 单相智能电表8(8) 等级:发送报文 信息:08 03 00 02 00 09 24 95
2025/10/20 11:00:36.094:Tag: 单相智能电表8(8) 等级:信息日志 信息: modbus-> sendDataToSocket ok skid: 11 ret:8 m_bufLen:8 

2025/10/20 11:00:36.410:Tag: 单相智能电表8(8) 等级:错误日志 信息: modbus readDataFromSocketE ok skid: 11 ret:23 expRxLen:23 

2025/10/20 11:00:36.414:Tag: 单相智能电表8(8) 等级:接收报文 信息:08 03 12 4c 79 07 78 00 00 08 f5 00 00 0e 99 00 00 07 ce 00 00 6f 1b
2025/10/20 11:00:36.418:Tag: 单相智能电表9(9) 等级:发送报文 信息:09 03 00 02 00 09 25 44
2025/10/20 11:00:36.422:Tag: 单相智能电表9(9) 等级:信息日志 信息: modbus-> sendDataToSocket ok skid: 11 ret:8 m_bufLen:8 

2025/10/20 11:00:36.734:Tag: 单相智能电表9(9) 等级:错误日志 信息: modbus readDataFromSocketE ok skid: 11 ret:23 expRxLen:23 


2025/10/20 11:00:36.739:Tag: 单相智能电表9(9) 等级:接收报文 信息:09 03 12 47 3f 0c 5b 00 00 0c 92 00 00 16 81 00 00 0c fe 00 00 74 8d
2025/10/20 11:00:36.743:Tag: 三相智能电表1（线路阻抗柜端口2）(51) 等级:发送报文 信息:33 03 00 0a 00 22 e1 c3
2025/10/20 11:00:36.747:Tag: 三相智能电表1（线路阻抗柜端口2）(51) 等级:信息日志 信息: modbus-> sendDataToSocket ok skid: 11 ret:8 m_bufLen:8 

2025/10/20 11:00:37.007:Tag: 三相智能电表1（线路阻抗柜端口2）(51) 等级:错误日志 信息: modbus readDataFromSocketE ok skid: 11 ret:73 expRxLen:73 

2025/10/20 11:00:37.012:Tag: 三相智能电表1（线路阻抗柜端口2）(51) 等级:接收报文 信息:33 03 44 43 4f 99 4e 43 50 ff 1c 43 52 38 a3 43 b4 64 34 43 b5 86 e2 43 b4 ec 2f 41 00 f2 73 40 9f fe c3 40 3f 61 3b 44 9e d3 e2 44 5c 46 3c 44 0c f6 67 45 29 b9 1a 44 7d df 64 44 00 02 e5 43 83 59 7a 44 df c7 84 db 36
2025/10/20 11:00:37.017:Tag: 三相智能电表2（线路阻抗柜端口4）(52) 等级:发送报文 信息:34 03 00 0a 00 22 e0 74
2025/10/20 11:00:37.022:Tag: 三相智能电表2（线路阻抗柜端口4）(52) 等级:信息日志 信息: modbus-> sendDataToSocket ok skid: 11 ret:8 m_bufLen:8 

2025/10/20 11:00:37.230:Tag: 线路阻抗模拟柜(1543468) 等级:接收报文 信息:0a 72 00 00 00 af 01 03 ac 43 5c 6c b8 43 5c c8 f1 43 5d 4a 72 43 bf 0c a4 43 bf 6c a9 43 bf 44 be 41 4e 6a fc 41 5c 96 f5 41 4d 2c 9f 40 09 c5 c0 40 16 ef 4c 40 12 1f a4 40 d9 6a 58 3f ed d7 7d 3f f6 55 be 3f d7 b1 ee 40 ae f7 ca 00 00 00 00 00 00 00 00 00 00 00 00 41 0b 9b 0e 3f 47 57 5d 42 48 00 00 43 bf 6c a9 41 5c 96 f5 40 16 ef 4c 43 37 e3 36 43 3c 5f 7d 43 46 97 ef 43 a1 32 8c 43 a7 94 b6 43 a5 a8 f2 3f 0c b6 a0 3f 19 0d 38 3f 11 1e 00 3d 8e bd 22 3d 98 d5 25 3d 91 aa cb 3e 5c 9e 8a 3d 95 eb 96 3d ac be 11 3d b2 b5 39 3e 7a af 70

2025/10/20 11:00:37.237:Tag: 线路阻抗模拟柜(1543468) 等级:发送报文 信息:0a 73 00 00 00 06 01 03 00 87 00 56
2025/10/20 11:00:37.242:Tag: 线路阻抗模拟柜(1543468) 等级:信息日志 信息: modbus-> sendDataToSocket ok skid: 12 ret:12 m_bufLen:12 

2025/10/20 11:00:37.347:Tag: 三相智能电表2（线路阻抗柜端口4）(52) 等级:错误日志 信息: modbus readDataFromSocketE ok skid: 11 ret:73 expRxLen:73 

2025/10/20 11:00:37.352:Tag: 三相智能电表2（线路阻抗柜端口4）(52) 等级:接收报文 信息:34 03 44 43 3e 39 bc 43 47 f0 cb 43 4d 8d 6f 43 a8 f6 df 43 af 96 da 43 ab 6b 74 40 c0 b9 f4 40 3a b3 29 3f 0b de c1 44 4d 4c 8b 43 e2 28 76 42 8b 44 b6 44 a7 e4 ae 44 32 47 f3 43 8d e3 70 42 70 3a 47 44 84 1e a8 c3 a7
2025/10/20 11:00:37.357:Tag: 三相智能电表3（线路阻抗柜端口5）(53) 等级:发送报文 信息:35 03 00 0a 00 22 e1 a5
2025/10/20 11:00:37.362:Tag: 三相智能电表3（线路阻抗柜端口5）(53) 等级:信息日志 信息: modbus-> sendDataToSocket ok skid: 11 ret:8 m_bufLen:8 

2025/10/20 11:00:37.672:Tag: 三相智能电表3（线路阻抗柜端口5）(53) 等级:错误日志 信息: modbus readDataFromSocketE ok skid: 11 ret:73 expRxLen:73 

2025/10/20 11:00:37.678:Tag: 三相智能电表3（线路阻抗柜端口5）(53) 等级:接收报文 信息:35 03 44 43 37 20 a4 43 44 8c 53 43 4c e8 a2 43 a4 70 49 43 ad d9 36 43 a8 1c e2 40 48 1e 9a 3f 95 e6 12 3f 0d 47 58 43 de de 0f 43 57 b0 08 42 8c 5f 4e 44 36 e6 f4 43 83 38 5f 42 7f 4c 86 42 72 4a 52 43 c1 6b 3a 99 d4

2025/10/20 11:00:37.684:Tag: 三相智能电表4（线路阻抗柜端口7）(54) 等级:发送报文 信息:36 03 00 0a 00 22 e1 96
2025/10/20 11:00:37.689:Tag: 三相智能电表4（线路阻抗柜端口7）(54) 等级:信息日志 信息: modbus-> sendDataToSocket ok skid: 11 ret:8 m_bufLen:8 

2025/10/20 11:00:37.948:Tag: 三相智能电表4（线路阻抗柜端口7）(54) 等级:错误日志 信息: modbus readDataFromSocketE ok skid: 11 ret:73 expRxLen:73 

2025/10/20 11:00:37.953:Tag: 三相智能电表4（线路阻抗柜端口7）(54) 等级:接收报文 信息:36 03 44 43 33 6d b8 43 43 45 cf 43 4c 3d db 43 a2 4c 7c 43 ad 02 62 43 a6 3f f6 40 39 c0 3e 3f 11 7f de 3f 0e 11 52 c3 cd 45 60 c2 97 46 5b c2 88 fe 21 c4 0a ab 40 c3 58 03 03 c2 69 2f ea c2 7b 25 56 c3 a8 8c 2a 24 55
2025/10/20 11:00:37.958:Tag: 三相智能电表5(55) 等级:发送报文 信息:37 03 00 00 00 22 c0 45
2025/10/20 11:00:37.963:Tag: 三相智能电表5(55) 等级:信息日志 信息: modbus-> sendDataToSocket ok skid: 11 ret:8 m_bufLen:8 

2025/10/20 11:00:38.274:Tag: 三相智能电表5(55) 等级:错误日志 信息: modbus readDataFromSocketE ok skid: 11 ret:73 expRxLen:73 

2025/10/20 11:00:38.279:Tag: 三相智能电表5(55) 等级:接收报文 信息:37 03 44 66 66 43 3d 66 66 43 47 19 9a 43 4c d9 9a 43 a7 26 66 43 ae 80 00 43 ab c0 83 40 2a fd f4 40 54 4b c7 40 37 3a 93 3f 01 ad 43 3f 29 66 cf 3f 15 27 52 3f e0 ed fa 3c eb fc b9 3d 07 d1 4e 3d 11 85 f0 3d c9 1d e0

2025/10/20 11:00:38.284:Tag: 三相智能电表6(56) 等级:发送报文 信息:38 03 00 00 00 22 c0 ba
2025/10/20 11:00:38.289:Tag: 三相智能电表6(56) 等级:信息日志 信息: modbus-> sendDataToSocket ok skid: 11 ret:8 m_bufLen:8 

2025/10/20 11:00:38.600:Tag: 三相智能电表6(56) 等级:错误日志 信息: modbus readDataFromSocketE ok skid: 11 ret:73 expRxLen:73 

2025/10/20 11:00:38.605:Tag: 三相智能电表6(56) 等级:接收报文 信息:38 03 44 00 00 00 00 00 00 00 00 00 00 00 00 00 00 00 00 00 00 00 00 00 00 00 00 00 00 00 00 00 00 00 00 00 00 00 00 00 00 00 00 00 00 00 00 00 00 00 00 00 00 00 00 00 00 00 00 00 00 00 00 00 00 00 00 00 00 00 00 aa a2
2025/10/20 11:00:38.610:Tag: 单相智能电表1(1) 等级:发送报文 信息:01 03 00 02 00 09 24 0c
2025/10/20 11:00:38.615:Tag: 单相智能电表1(1) 等级:信息日志 信息: modbus-> sendDataToSocket ok skid: 11 ret:8 m_bufLen:8 

2025/10/20 11:00:38.874:Tag: 单相智能电表1(1) 等级:错误日志 信息: modbus readDataFromSocketE ok skid: 11 ret:23 expRxLen:23 

2025/10/20 11:00:38.878:Tag: 单相智能电表1(1) 等级:接收报文 信息:01 03 12 4f 63 03 e4 00 00 07 ee 00 00 07 e4 00 00 00 02 00 00 7a dd
2025/10/20 11:00:38.883:Tag: 单相智能电表2(2) 等级:发送报文 信息:02 03 00 02 00 09 24 3f

2025/10/20 11:00:38.888:Tag: 单相智能电表2(2) 等级:信息日志 信息: modbus-> sendDataToSocket ok skid: 11 ret:8 m_bufLen:8 

2025/10/20 11:00:39.200:Tag: 单相智能电表2(2) 等级:错误日志 信息: modbus readDataFromSocketE ok skid: 11 ret:23 expRxLen:23 

2025/10/20 11:00:39.205:Tag: 单相智能电表2(2) 等级:接收报文 信息:02 03 12 4f 5e 12 4f 00 00 1b b9 00 00 25 28 00 00 10 1d 00 00 9e 00
2025/10/20 11:00:39.209:Tag: 单相智能电表3(3) 等级:发送报文 信息:03 03 00 02 00 09 25 ee
2025/10/20 11:00:39.213:Tag: 单相智能电表3(3) 等级:信息日志 信息: modbus-> sendDataToSocket ok skid: 11 ret:8 m_bufLen:8 

2025/10/20 11:00:39.524:Tag: 单相智能电表3(3) 等级:错误日志 信息: modbus readDataFromSocketE ok skid: 11 ret:23 expRxLen:23 

2025/10/20 11:00:39.528:Tag: 单相智能电表3(3) 等级:接收报文 信息:03 03 12 4f ac 08 2a 00 00 05 84 00 00 10 a1 00 00 09 b0 00 00 e4 18
2025/10/20 11:00:39.533:Tag: 单相智能电表4(4) 等级:发送报文 信息:04 03 00 02 00 09 24 59
2025/10/20 11:00:39.537:Tag: 单相智能电表4(4) 等级:信息日志 信息: modbus-> sendDataToSocket ok skid: 11 ret:8 m_bufLen:8 

2025/10/20 11:00:39.797:Tag: 单相智能电表4(4) 等级:错误日志 信息: modbus readDataFromSocketE ok skid: 11 ret:23 expRxLen:23 


2025/10/20 11:00:39.802:Tag: 单相智能电表4(4) 等级:接收报文 信息:04 03 12 51 10 0c 1a 00 00 12 f0 00 00 19 13 00 00 0a b5 00 00 bf 53
2025/10/20 11:00:39.806:Tag: 单相智能电表5(5) 等级:发送报文 信息:05 03 00 02 00 09 25 88
2025/10/20 11:00:39.811:Tag: 单相智能电表5(5) 等级:信息日志 信息: modbus-> sendDataToSocket ok skid: 11 ret:8 m_bufLen:8 

2025/10/20 11:00:40.121:Tag: 单相智能电表5(5) 等级:错误日志 信息: modbus readDataFromSocketE ok skid: 11 ret:23 expRxLen:23 

2025/10/20 11:00:40.125:Tag: 单相智能电表5(5) 等级:接收报文 信息:05 03 12 4f e4 0b 4c 00 00 10 9b 00 00 17 13 00 00 0a 80 00 00 e8 32
2025/10/20 11:00:40.130:Tag: 单相智能电表6(6) 等级:发送报文 信息:06 03 00 02 00 09 25 bb
2025/10/20 11:00:40.132:Tag: 单相智能电表6(6) 等级:信息日志 信息: modbus-> sendDataToSocket ok skid: 11 ret:8 m_bufLen:8 

2025/10/20 11:00:40.134:Tag: 可控三项负载柜(1543484) 等级:接收报文 信息:0a 75 00 00 00 47 01 03 44 43 47 48 e4 43 4c 30 aa 43 4f 5e f8 43 ae b6 ca 43 b2 36 83 43 b0 19 44 3f ac b3 58 3f b1 89 dd 3f b5 e3 e0 3e 5f f5 7c 3e 6a ae a7 3e 74 c1 75 3f 2f d9 66 3e 1b f5 46 3e 26 43 8a 3e 2d dd f1 3e f8 0b 61

2025/10/20 11:00:40.137:Tag: 可控三项负载柜(1543484) 等级:发送报文 信息:0a 76 00 00 00 06 01 03 00 96 00 22
2025/10/20 11:00:40.140:Tag: 可控三项负载柜(1543484) 等级:信息日志 信息: modbus-> sendDataToSocket ok skid: 10 ret:12 m_bufLen:12 

2025/10/20 11:00:40.448:Tag: 单相智能电表6(6) 等级:错误日志 信息: modbus readDataFromSocketE ok skid: 11 ret:23 expRxLen:23 

2025/10/20 11:00:40.450:Tag: 单相智能电表6(6) 等级:接收报文 信息:06 03 12 50 7b 0b b8 00 00 11 e2 00 00 18 1d 00 00 0a 8f 00 00 a7 57
2025/10/20 11:00:40.453:Tag: 单相智能电表7(7) 等级:发送报文 信息:07 03 00 02 00 09 24 6a
2025/10/20 11:00:40.456:Tag: 单相智能电表7(7) 等级:信息日志 信息: modbus-> sendDataToSocket ok skid: 11 ret:8 m_bufLen:8 

2025/10/20 11:00:40.765:Tag: 单相智能电表7(7) 等级:错误日志 信息: modbus readDataFromSocketE ok skid: 11 ret:23 expRxLen:23 

2025/10/20 11:00:40.768:Tag: 单相智能电表7(7) 等级:接收报文 信息:07 03 12 4c 11 02 cf 00 00 05 6f 00 00 05 76 00 00 00 4c 00 00 c4 35
2025/10/20 11:00:40.772:Tag: 单相智能电表8(8) 等级:发送报文 信息:08 03 00 02 00 09 24 95
2025/10/20 11:00:40.775:Tag: 单相智能电表8(8) 等级:信息日志 信息: modbus-> sendDataToSocket ok skid: 11 ret:8 m_bufLen:8 


2025/10/20 11:00:41.034:Tag: 单相智能电表8(8) 等级:错误日志 信息: modbus readDataFromSocketE ok skid: 11 ret:23 expRxLen:23 

2025/10/20 11:00:41.038:Tag: 单相智能电表8(8) 等级:接收报文 信息:08 03 12 4c 65 07 71 00 00 08 e4 00 00 0e 88 00 00 07 c8 00 00 df e7
2025/10/20 11:00:41.042:Tag: 单相智能电表9(9) 等级:发送报文 信息:09 03 00 02 00 09 25 44
2025/10/20 11:00:41.046:Tag: 单相智能电表9(9) 等级:信息日志 信息: modbus-> sendDataToSocket ok skid: 11 ret:8 m_bufLen:8 

2025/10/20 11:00:41.356:Tag: 单相智能电表9(9) 等级:错误日志 信息: modbus readDataFromSocketE ok skid: 11 ret:23 expRxLen:23 

2025/10/20 11:00:41.360:Tag: 单相智能电表9(9) 等级:接收报文 信息:09 03 12 47 33 0c 57 00 00 0c 88 00 00 16 75 00 00 0c f9 00 00 cc 9d
2025/10/20 11:00:41.364:Tag: 三相智能电表1（线路阻抗柜端口2）(51) 等级:发送报文 信息:33 03 00 0a 00 22 e1 c3
2025/10/20 11:00:41.368:Tag: 三相智能电表1（线路阻抗柜端口2）(51) 等级:信息日志 信息: modbus-> sendDataToSocket ok skid: 11 ret:8 m_bufLen:8 

2025/10/20 11:00:41.677:Tag: 三相智能电表1（线路阻抗柜端口2）(51) 等级:错误日志 信息: modbus readDataFromSocketE ok skid: 11 ret:73 expRxLen:73 

2025/10/20 11:00:41.681:Tag: 三相智能电表1（线路阻抗柜端口2）(51) 等级:接收报文 信息:33 03 44 43 4f 86 2a 43 50 dd b8 43 52 40 06 43 b4 4d 73 43 b5 7b a3 43 b4 e7 1e 41 00 d5 92 40 9f f8 0c 40 3f 3e 72 44 9e 99 20 44 5c 26 ac 44 0c f2 df 45 29 92 f3 44 7d 9a f6 43 ff ca e6 43 82 ee 9e 44 df 7b dc d2 c2

2025/10/20 11:00:41.687:Tag: 三相智能电表2（线路阻抗柜端口4）(52) 等级:发送报文 信息:34 03 00 0a 00 22 e0 74
2025/10/20 11:00:41.691:Tag: 三相智能电表2（线路阻抗柜端口4）(52) 等级:信息日志 信息: modbus-> sendDataToSocket ok skid: 11 ret:8 m_bufLen:8 

2025/10/20 11:00:42.001:Tag: 三相智能电表2（线路阻抗柜端口4）(52) 等级:错误日志 信息: modbus readDataFromSocketE ok skid: 11 ret:73 expRxLen:73 

2025/10/20 11:00:42.005:Tag: 三相智能电表2（线路阻抗柜端口4）(52) 等级:接收报文 信息:34 03 44 43 3e 42 f8 43 47 ea d3 43 4d 61 e5 43 a8 f8 3b 43 af 81 56 43 ab 5c 4f 40 c0 9d fb 40 3a ff 92 3f 0b cf a4 44 4d 10 c6 43 e2 ca 24 42 8b 68 55 44 a7 f1 71 44 32 3b 62 43 8d fb 0e 42 6e 89 14 44 84 10 bd 9b 71
2025/10/20 11:00:42.010:Tag: 三相智能电表3（线路阻抗柜端口5）(53) 等级:发送报文 信息:35 03 00 0a 00 22 e1 a5
2025/10/20 11:00:42.014:Tag: 三相智能电表3（线路阻抗柜端口5）(53) 等级:信息日志 信息: modbus-> sendDataToSocket ok skid: 11 ret:8 m_bufLen:8 

2025/10/20 11:00:42.222:Tag: 线路阻抗模拟柜(1543468) 等级:接收报文 信息:0a 73 00 00 00 af 01 03 ac 43 5c 44 60 43 5c 83 aa 43 5d 0d dd 43 be dd 2c 43 bf 34 6e 43 bf 19 0a 41 4e 38 02 41 5c 15 4a 41 4d 04 01 40 09 8b c5 40 16 65 cd 40 11 e4 d3 40 d8 eb 32 3f ed 6e 65 3f f5 7b 8f 3f d7 30 e2 40 ae 86 b5 00 00 00 00 00 00 00 00 00 00 00 00 41 0b 46 36 3f 47 5b f2 42 48 00 00 43 bf 34 6e 41 5c 15 4a 40 16 65 cd 43 37 fb ec 43 3c 6b 43 43 46 67 f5 43 a1 42 52 43 a7 84 ce 43 a5 9e 7a 3f 0d 2a 87 3f 19 02 d3 3f 10 54 02 3d 8f 1f c6 3d 99 12 61 3d 90 5e 56 3e 5c 48 40 3d 96 9f 98 3d ac 86 22 3d b1 de 91 3e 7a 82 27

2025/10/20 11:00:42.228:Tag: 线路阻抗模拟柜(1543468) 等级:发送报文 信息:0a 74 00 00 00 06 01 03 00 87 00 56
2025/10/20 11:00:42.233:Tag: 线路阻抗模拟柜(1543468) 等级:信息日志 信息: modbus-> sendDataToSocket ok skid: 12 ret:12 m_bufLen:12 

2025/10/20 11:00:42.288:Tag: 三相智能电表3（线路阻抗柜端口5）(53) 等级:错误日志 信息: modbus readDataFromSocketE ok skid: 11 ret:73 expRxLen:73 

2025/10/20 11:00:42.306:Tag: 三相智能电表3（线路阻抗柜端口5）(53) 等级:接收报文 信息:35 03 44 43 37 0c d1 43 44 69 22 43 4c e4 b4 43 a4 58 64 43 ad c8 5e 43 a8 12 bb 40 47 f7 c8 3f 96 25 c6 3f 0d 8a c0 43 de a2 2a 43 57 e6 02 42 8c e9 05 44 36 e7 b6 43 82 f9 a6 42 80 e0 3a 42 72 2f ad 43 c1 77 aa a1 c7
2025/10/20 11:00:42.311:Tag: 三相智能电表4（线路阻抗柜端口7）(54) 等级:发送报文 信息:36 03 00 0a 00 22 e1 96
2025/10/20 11:00:42.321:Tag: 三相智能电表4（线路阻抗柜端口7）(54) 等级:信息日志 信息: modbus-> sendDataToSocket ok skid: 11 ret:8 m_bufLen:8 

2025/10/20 11:00:42.635:Tag: 三相智能电表4（线路阻抗柜端口7）(54) 等级:错误日志 信息: modbus readDataFromSocketE ok skid: 11 ret:73 expRxLen:73 

2025/10/20 11:00:42.640:Tag: 三相智能电表4（线路阻抗柜端口7）(54) 等级:接收报文 信息:36 03 44 43 33 48 82 43 43 22 27 43 4c 30 21 43 a2 2c f2 43 ac ed 12 43 a6 2a 24 40 39 b4 78 3f 10 ff 8d 3f 0e 48 2e c3 cd 2c 70 c2 96 ae 34 c2 89 32 e3 c4 0a 92 5b c3 57 be 8a c2 69 e5 2e c2 7c 12 96 c3 a8 9e 3e 16 22

2025/10/20 11:00:42.645:Tag: 三相智能电表5(55) 等级:发送报文 信息:37 03 00 00 00 22 c0 45
2025/10/20 11:00:42.650:Tag: 三相智能电表5(55) 等级:信息日志 信息: modbus-> sendDataToSocket ok skid: 11 ret:8 m_bufLen:8 

2025/10/20 11:00:42.909:Tag: 三相智能电表5(55) 等级:错误日志 信息: modbus readDataFromSocketE ok skid: 11 ret:73 expRxLen:73 

2025/10/20 11:00:42.913:Tag: 三相智能电表5(55) 等级:接收报文 信息:37 03 44 80 00 43 3d 66 66 43 47 33 33 43 4c e6 66 43 a7 33 33 43 ae 99 9a 43 ab c0 83 40 2a 3f 7d 40 55 4b c7 40 37 54 ca 3f 01 fb e7 3f 29 81 06 3f 15 68 dc 3f e0 ed fa 3c eb fc b9 3d 07 d1 4e 3d 11 b4 39 3d c8 bc b4
2025/10/20 11:00:42.918:Tag: 三相智能电表6(56) 等级:发送报文 信息:38 03 00 00 00 22 c0 ba
2025/10/20 11:00:42.922:Tag: 三相智能电表6(56) 等级:信息日志 信息: modbus-> sendDataToSocket ok skid: 11 ret:8 m_bufLen:8 

2025/10/20 11:00:43.232:Tag: 三相智能电表6(56) 等级:错误日志 信息: modbus readDataFromSocketE ok skid: 11 ret:73 expRxLen:73 

2025/10/20 11:00:43.236:Tag: 三相智能电表6(56) 等级:接收报文 信息:38 03 44 00 00 00 00 00 00 00 00 00 00 00 00 00 00 00 00 00 00 00 00 00 00 00 00 00 00 00 00 00 00 00 00 00 00 00 00 00 00 00 00 00 00 00 00 00 00 00 00 00 00 00 00 00 00 00 00 00 00 00 00 00 00 00 00 00 00 00 00 aa a2

2025/10/20 11:00:43.241:Tag: 单相智能电表1(1) 等级:发送报文 信息:01 03 00 02 00 09 24 0c
2025/10/20 11:00:43.245:Tag: 单相智能电表1(1) 等级:信息日志 信息: modbus-> sendDataToSocket ok skid: 11 ret:8 m_bufLen:8 

2025/10/20 11:00:43.556:Tag: 单相智能电表1(1) 等级:错误日志 信息: modbus readDataFromSocketE ok skid: 11 ret:23 expRxLen:23 

2025/10/20 11:00:43.560:Tag: 单相智能电表1(1) 等级:接收报文 信息:01 03 12 4f 68 03 e4 00 00 07 ef 00 00 07 e5 00 00 00 02 00 00 19 d3
2025/10/20 11:00:43.564:Tag: 单相智能电表2(2) 等级:发送报文 信息:02 03 00 02 00 09 24 3f
2025/10/20 11:00:43.568:Tag: 单相智能电表2(2) 等级:信息日志 信息: modbus-> sendDataToSocket ok skid: 11 ret:8 m_bufLen:8 

2025/10/20 11:00:43.879:Tag: 单相智能电表2(2) 等级:错误日志 信息: modbus readDataFromSocketE ok skid: 11 ret:23 expRxLen:23 

2025/10/20 11:00:43.883:Tag: 单相智能电表2(2) 等级:接收报文 信息:02 03 12 4f 64 12 51 00 00 1b be 00 00 25 2e 00 00 10 20 00 00 df 1d
2025/10/20 11:00:43.887:Tag: 单相智能电表3(3) 等级:发送报文 信息:03 03 00 02 00 09 25 ee
2025/10/20 11:00:43.891:Tag: 单相智能电表3(3) 等级:信息日志 信息: modbus-> sendDataToSocket ok skid: 11 ret:8 m_bufLen:8 


2025/10/20 11:00:44.149:Tag: 单相智能电表3(3) 等级:错误日志 信息: modbus readDataFromSocketE ok skid: 11 ret:23 expRxLen:23 

2025/10/20 11:00:44.153:Tag: 单相智能电表3(3) 等级:接收报文 信息:03 03 12 4f b8 08 2d 00 00 05 89 00 00 10 aa 00 00 09 b6 00 00 8d 73
2025/10/20 11:00:44.157:Tag: 单相智能电表4(4) 等级:发送报文 信息:04 03 00 02 00 09 24 59
2025/10/20 11:00:44.161:Tag: 单相智能电表4(4) 等级:信息日志 信息: modbus-> sendDataToSocket ok skid: 11 ret:8 m_bufLen:8 

2025/10/20 11:00:44.470:Tag: 单相智能电表4(4) 等级:错误日志 信息: modbus readDataFromSocketE ok skid: 11 ret:23 expRxLen:23 

2025/10/20 11:00:44.474:Tag: 单相智能电表4(4) 等级:接收报文 信息:04 03 12 51 1e 0c 1c 00 00 12 f9 00 00 19 1d 00 00 0a b7 00 00 3d ae
2025/10/20 11:00:44.478:Tag: 单相智能电表5(5) 等级:发送报文 信息:05 03 00 02 00 09 25 88
2025/10/20 11:00:44.482:Tag: 单相智能电表5(5) 等级:信息日志 信息: modbus-> sendDataToSocket ok skid: 11 ret:8 m_bufLen:8 

2025/10/20 11:00:44.792:Tag: 单相智能电表5(5) 等级:错误日志 信息: modbus readDataFromSocketE ok skid: 11 ret:23 expRxLen:23 

2025/10/20 11:00:44.796:Tag: 单相智能电表5(5) 等级:接收报文 信息:05 03 12 4f ee 0b 4e 00 00 10 a0 00 00 17 1a 00 00 0a 82 00 00 ae 75

2025/10/20 11:00:44.801:Tag: 单相智能电表6(6) 等级:发送报文 信息:06 03 00 02 00 09 25 bb
2025/10/20 11:00:44.805:Tag: 单相智能电表6(6) 等级:信息日志 信息: modbus-> sendDataToSocket ok skid: 11 ret:8 m_bufLen:8 

2025/10/20 11:00:45.116:Tag: 单相智能电表6(6) 等级:错误日志 信息: modbus readDataFromSocketE ok skid: 11 ret:23 expRxLen:23 

2025/10/20 11:00:45.120:Tag: 单相智能电表6(6) 等级:接收报文 信息:06 03 12 50 88 0b b9 00 00 11 e6 00 00 18 23 00 00 0a 92 00 00 88 61
2025/10/20 11:00:45.124:Tag: 单相智能电表7(7) 等级:发送报文 信息:07 03 00 02 00 09 24 6a
2025/10/20 11:00:45.128:Tag: 单相智能电表7(7) 等级:信息日志 信息: modbus-> sendDataToSocket ok skid: 11 ret:8 m_bufLen:8 

2025/10/20 11:00:45.132:Tag: 可控三项负载柜(1543484) 等级:接收报文 信息:0a 76 00 00 00 47 01 03 44 43 46 eb e1 43 4c 08 5e 43 4f 17 47 43 ae 7d 2a 43 b2 05 fc 43 af d2 02 3f ac 07 fc 3f b1 32 61 3f b5 f6 cc 3e 5f 22 e1 3e 6a 8e 28 3e 73 98 ff 3f 2f 52 81 3e 1a fb a5 3e 26 25 77 3e 2d e1 8a 3e f7 81 53
2025/10/20 11:00:45.136:Tag: 可控三项负载柜(1543484) 等级:发送报文 信息:0a 77 00 00 00 06 01 03 00 96 00 22
2025/10/20 11:00:45.140:Tag: 可控三项负载柜(1543484) 等级:信息日志 信息: modbus-> sendDataToSocket ok skid: 10 ret:12 m_bufLen:12 


2025/10/20 11:00:45.400:Tag: 单相智能电表7(7) 等级:错误日志 信息: modbus readDataFromSocketE ok skid: 11 ret:23 expRxLen:23 

2025/10/20 11:00:45.404:Tag: 单相智能电表7(7) 等级:接收报文 信息:07 03 12 4c 17 02 c7 00 00 05 61 00 00 05 68 00 00 00 45 00 00 35 79
2025/10/20 11:00:45.408:Tag: 单相智能电表8(8) 等级:发送报文 信息:08 03 00 02 00 09 24 95
2025/10/20 11:00:45.412:Tag: 单相智能电表8(8) 等级:信息日志 信息: modbus-> sendDataToSocket ok skid: 11 ret:8 m_bufLen:8 

2025/10/20 11:00:45.722:Tag: 单相智能电表8(8) 等级:错误日志 信息: modbus readDataFromSocketE ok skid: 11 ret:23 expRxLen:23 

2025/10/20 11:00:45.726:Tag: 单相智能电表8(8) 等级:接收报文 信息:08 03 12 4c 70 07 76 00 00 08 f1 00 00 0e 94 00 00 07 cc 00 00 5f 7d
2025/10/20 11:00:45.730:Tag: 单相智能电表9(9) 等级:发送报文 信息:09 03 00 02 00 09 25 44
2025/10/20 11:00:45.734:Tag: 单相智能电表9(9) 等级:信息日志 信息: modbus-> sendDataToSocket ok skid: 11 ret:8 m_bufLen:8 

2025/10/20 11:00:46.045:Tag: 单相智能电表9(9) 等级:错误日志 信息: modbus readDataFromSocketE ok skid: 11 ret:23 expRxLen:23 

2025/10/20 11:00:46.049:Tag: 单相智能电表9(9) 等级:接收报文 信息:09 03 12 47 3e 0c 57 00 00 0c 89 00 00 16 79 00 00 0c fb 00 00 31 32

2025/10/20 11:00:46.054:Tag: 可控调压7(27) 等级:发送控制命令报文 信息:1b 06 00 01 00 40 db c0
2025/10/20 11:00:46.364:Tag: 可控调压7(27) 等级:接收控制命令报文返回 信息:1b 06 00 01 00 40 db c0
2025/10/20 11:00:46.368:Tag: 可控调压8(28) 等级:发送控制命令报文 信息:1c 06 00 01 00 42 5b b6
2025/10/20 11:00:46.681:Tag: 可控调压8(28) 等级:接收控制命令报文返回 信息:1c 06 00 01 00 42 5b b6
2025/10/20 11:00:46.685:Tag: 可控调压9(29) 等级:发送控制命令报文 信息:1d 06 00 01 00 3f 9a 46
2025/10/20 11:00:46.944:Tag: 可控调压9(29) 等级:接收控制命令报文返回 信息:1d 06 00 01 00 3f 9a 46
2025/10/20 11:00:46.948:Tag: 可控调压10(30) 等级:发送控制命令报文 信息:1e 06 00 01 00 42 5a 54
2025/10/20 11:00:47.258:Tag: 线路阻抗模拟柜(1543468) 等级:接收报文 信息:0a 74 00 00 00 af 01 03 ac 43 5c 37 c1 43 5c 73 26 43 5d 07 e4 43 be d0 8e 43 bf 2a b2 43 bf 10 fd 41 4e 21 2b 41 5c 0e ae 41 4c e4 6c 40 09 6c 99 40 16 51 78 40 11 c5 95 40 d8 c1 d2 3f ed 59 2c 3f f5 6c f2 3f d7 17 05 40 ae 77 48 00 00 00 00 00 00 00 00 00 00 00 00 41 0b 31 48 3f 47 53 df 42 48 00 00 43 bf 2a b2 41 5c 0e ae 40 16 51 78 43 37 c5 ec 43 3c 35 66 43 46 6b 06 43 a1 13 9e 43 a7 6f 08 43 a5 88 be 3f 0c b2 50 3f 18 ad a8 3f 10 4e 9a 3d 8d 9d 14 3d 97 59 44 3d 8f e7 f0 3e 5a 6f 23 3d 96 c5 e4 3d ad 07 f9 3d b2 37 f1 3e 7b 02 e6

2025/10/20 11:00:47.264:Tag: 线路阻抗模拟柜(1543468) 等级:发送报文 信息:0a 75 00 00 00 06 01 03 00 87 00 56
2025/10/20 11:00:47.268:Tag: 线路阻抗模拟柜(1543468) 等级:信息日志 信息: modbus-> sendDataToSocket ok skid: 12 ret:12 m_bufLen:12 

2025/10/20 11:00:47.273:Tag: 可控调压10(30) 等级:接收控制命令报文返回 信息:1e 06 00 01 00 42 5a 54
2025/10/20 11:00:47.277:Tag: 三相智能电表1（线路阻抗柜端口2）(51) 等级:发送报文 信息:33 03 00 0a 00 22 e1 c3
2025/10/20 11:00:47.283:Tag: 三相智能电表1（线路阻抗柜端口2）(51) 等级:信息日志 信息: modbus-> sendDataToSocket ok skid: 11 ret:8 m_bufLen:8 

2025/10/20 11:00:47.601:Tag: 三相智能电表1（线路阻抗柜端口2）(51) 等级:错误日志 信息: modbus readDataFromSocketE ok skid: 11 ret:73 expRxLen:73 

2025/10/20 11:00:47.606:Tag: 三相智能电表1（线路阻抗柜端口2）(51) 等级:接收报文 信息:33 03 44 43 4f 81 fb 43 50 e6 9b 43 52 3b 14 43 b4 4f 7e 43 b5 7d 56 43 b4 e3 2a 41 00 e6 a2 40 9f b5 96 40 3f 32 bc 44 9e ab f2 44 5b c1 04 44 0c d5 96 45 29 7b a0 44 7d b0 1e 43 ff 7d f0 43 83 15 57 44 df 7c e0 38 1d
2025/10/20 11:00:47.611:Tag: 三相智能电表2（线路阻抗柜端口4）(52) 等级:发送报文 信息:34 03 00 0a 00 22 e0 74
2025/10/20 11:00:47.615:Tag: 三相智能电表2（线路阻抗柜端口4）(52) 等级:信息日志 信息: modbus-> sendDataToSocket ok skid: 11 ret:8 m_bufLen:8 


2025/10/20 11:00:47.874:Tag: 三相智能电表2（线路阻抗柜端口4）(52) 等级:错误日志 信息: modbus readDataFromSocketE ok skid: 11 ret:73 expRxLen:73 

2025/10/20 11:00:47.879:Tag: 三相智能电表2（线路阻抗柜端口4）(52) 等级:接收报文 信息:34 03 44 43 40 14 51 43 47 c9 8e 43 4d 5f 79 43 a9 b1 b6 43 af 71 f2 43 ac 22 4c 40 b9 80 f2 40 3a 82 94 3f 0b 6f 64 44 2f cf 90 43 e1 e8 56 42 8a b6 34 44 99 0d 41 44 3e e0 6e 43 8d 93 4c 42 6f af 48 44 8a 52 84 2e 00
2025/10/20 11:00:47.883:Tag: 三相智能电表3（线路阻抗柜端口5）(53) 等级:发送报文 信息:35 03 00 0a 00 22 e1 a5
2025/10/20 11:00:47.887:Tag: 三相智能电表3（线路阻抗柜端口5）(53) 等级:信息日志 信息: modbus-> sendDataToSocket ok skid: 11 ret:8 m_bufLen:8 

2025/10/20 11:00:48.199:Tag: 三相智能电表3（线路阻抗柜端口5）(53) 等级:错误日志 信息: modbus readDataFromSocketE ok skid: 11 ret:73 expRxLen:73 

2025/10/20 11:00:48.204:Tag: 三相智能电表3（线路阻抗柜端口5）(53) 等级:接收报文 信息:35 03 44 43 39 ee 13 43 44 90 92 43 4c e5 8f 43 a5 a5 7a 43 ad d9 b3 43 a9 4c a2 40 31 c3 38 3f 95 54 9a 3f 0c b8 42 43 a9 97 ed 43 57 04 03 42 8b ae f7 44 1c 02 d6 43 9c 0a ea 42 7e 1f f2 42 70 7c d6 43 d9 de 83 23 0a

2025/10/20 11:00:48.209:Tag: 三相智能电表4（线路阻抗柜端口7）(54) 等级:发送报文 信息:36 03 00 0a 00 22 e1 96
2025/10/20 11:00:48.213:Tag: 三相智能电表4（线路阻抗柜端口7）(54) 等级:信息日志 信息: modbus-> sendDataToSocket ok skid: 11 ret:8 m_bufLen:8 

2025/10/20 11:00:48.523:Tag: 三相智能电表4（线路阻抗柜端口7）(54) 等级:错误日志 信息: modbus readDataFromSocketE ok skid: 11 ret:73 expRxLen:73 

2025/10/20 11:00:48.528:Tag: 三相智能电表4（线路阻抗柜端口7）(54) 等级:接收报文 信息:36 03 44 43 37 28 ae 43 43 68 d8 43 4c 34 55 43 a3 f4 1c 43 ad 0d 48 43 a7 d0 d4 40 25 1a 45 3f 10 c5 f6 3f 0e d3 c9 c3 9d 73 72 c2 96 4d af c2 88 f6 90 c3 e5 44 82 c3 86 bd 36 c2 68 f0 34 c2 7c aa 1e c3 c3 70 80 73 15
2025/10/20 11:00:48.533:Tag: 三相智能电表5(55) 等级:发送报文 信息:37 03 00 00 00 22 c0 45
2025/10/20 11:00:48.537:Tag: 三相智能电表5(55) 等级:信息日志 信息: modbus-> sendDataToSocket ok skid: 11 ret:8 m_bufLen:8 

2025/10/20 11:00:48.847:Tag: 三相智能电表5(55) 等级:错误日志 信息: modbus readDataFromSocketE ok skid: 11 ret:73 expRxLen:73 

2025/10/20 11:00:48.851:Tag: 三相智能电表5(55) 等级:接收报文 信息:37 03 44 66 66 43 3f 66 66 43 47 19 9a 43 4c 40 00 43 a9 33 33 43 ae d9 9a 43 ab 49 ba 40 2c fd f4 40 54 4b c7 40 37 c9 ef 3f 03 ad 43 3f 29 66 cf 3f 15 7c 1c 3f e1 34 d7 3c ef fc b9 3d 07 d1 4e 3d 11 85 f0 3d c9 47 16

2025/10/20 11:00:48.857:Tag: 三相智能电表6(56) 等级:发送报文 信息:38 03 00 00 00 22 c0 ba
2025/10/20 11:00:48.861:Tag: 三相智能电表6(56) 等级:信息日志 信息: modbus-> sendDataToSocket ok skid: 11 ret:8 m_bufLen:8 

2025/10/20 11:00:49.172:Tag: 三相智能电表6(56) 等级:错误日志 信息: modbus readDataFromSocketE ok skid: 11 ret:73 expRxLen:73 

2025/10/20 11:00:49.176:Tag: 三相智能电表6(56) 等级:接收报文 信息:38 03 44 00 00 00 00 00 00 00 00 00 00 00 00 00 00 00 00 00 00 00 00 00 00 00 00 00 00 00 00 00 00 00 00 00 00 00 00 00 00 00 00 00 00 00 00 00 00 00 00 00 00 00 00 00 00 00 00 00 00 00 00 00 00 00 00 00 00 00 00 aa a2
2025/10/20 11:00:49.181:Tag: 单相智能电表1(1) 等级:发送报文 信息:01 03 00 02 00 09 24 0c
2025/10/20 11:00:49.185:Tag: 单相智能电表1(1) 等级:信息日志 信息: modbus-> sendDataToSocket ok skid: 11 ret:8 m_bufLen:8 

2025/10/20 11:00:49.443:Tag: 单相智能电表1(1) 等级:错误日志 信息: modbus readDataFromSocketE ok skid: 11 ret:23 expRxLen:23 

2025/10/20 11:00:49.447:Tag: 单相智能电表1(1) 等级:接收报文 信息:01 03 12 4f 64 03 e4 00 00 07 ef 00 00 07 e5 00 00 00 02 00 00 dc d0
2025/10/20 11:00:49.451:Tag: 单相智能电表2(2) 等级:发送报文 信息:02 03 00 02 00 09 24 3f

2025/10/20 11:00:49.456:Tag: 单相智能电表2(2) 等级:信息日志 信息: modbus-> sendDataToSocket ok skid: 11 ret:8 m_bufLen:8 

2025/10/20 11:00:49.766:Tag: 单相智能电表2(2) 等级:错误日志 信息: modbus readDataFromSocketE ok skid: 11 ret:23 expRxLen:23 

2025/10/20 11:00:49.770:Tag: 单相智能电表2(2) 等级:接收报文 信息:02 03 12 4f 61 12 4f 00 00 1b ba 00 00 25 2a 00 00 10 1d 00 00 93 78
2025/10/20 11:00:49.774:Tag: 单相智能电表3(3) 等级:发送报文 信息:03 03 00 02 00 09 25 ee
2025/10/20 11:00:49.779:Tag: 单相智能电表3(3) 等级:信息日志 信息: modbus-> sendDataToSocket ok skid: 11 ret:8 m_bufLen:8 

2025/10/20 11:00:50.089:Tag: 单相智能电表3(3) 等级:错误日志 信息: modbus readDataFromSocketE ok skid: 11 ret:23 expRxLen:23 

2025/10/20 11:00:50.093:Tag: 单相智能电表3(3) 等级:接收报文 信息:03 03 12 4f b4 08 2a 00 00 05 83 00 00 10 a3 00 00 09 b3 00 00 a7 ab
2025/10/20 11:00:50.097:Tag: 单相智能电表4(4) 等级:发送报文 信息:04 03 00 02 00 09 24 59
2025/10/20 11:00:50.101:Tag: 单相智能电表4(4) 等级:信息日志 信息: modbus-> sendDataToSocket ok skid: 11 ret:8 m_bufLen:8 

2025/10/20 11:00:50.157:Tag: 可控三项负载柜(1543484) 等级:接收报文 信息:0a 77 00 00 00 47 01 03 44 43 47 0b 55 43 4b f4 2c 43 4f 3d 6b 43 ae 81 f2 43 b2 0d d2 43 af f0 2a 3f ac 11 04 3f b1 77 44 3f b6 0b d9 3e 5f 35 2e 3e 6a 52 1d 3e 74 20 fc 3f 2f 6a 11 3e 1b 4b af 3e 26 c1 fc 3e 2d d8 ec 3e f7 f3 4a

2025/10/20 11:00:50.173:Tag: 可控三项负载柜(1543484) 等级:发送报文 信息:0a 78 00 00 00 06 01 03 00 96 00 22
2025/10/20 11:00:50.178:Tag: 可控三项负载柜(1543484) 等级:信息日志 信息: modbus-> sendDataToSocket ok skid: 10 ret:12 m_bufLen:12 

2025/10/20 11:00:50.387:Tag: 单相智能电表4(4) 等级:错误日志 信息: modbus readDataFromSocketE ok skid: 11 ret:23 expRxLen:23 

2025/10/20 11:00:50.391:Tag: 单相智能电表4(4) 等级:接收报文 信息:04 03 12 51 1b 0c 1c 00 00 12 f8 00 00 19 1b 00 00 0a b6 00 00 1d c3
2025/10/20 11:00:50.395:Tag: 单相智能电表5(5) 等级:发送报文 信息:05 03 00 02 00 09 25 88
2025/10/20 11:00:50.399:Tag: 单相智能电表5(5) 等级:信息日志 信息: modbus-> sendDataToSocket ok skid: 11 ret:8 m_bufLen:8 

2025/10/20 11:00:50.708:Tag: 单相智能电表5(5) 等级:错误日志 信息: modbus readDataFromSocketE ok skid: 11 ret:23 expRxLen:23 

2025/10/20 11:00:50.712:Tag: 单相智能电表5(5) 等级:接收报文 信息:05 03 12 4f e8 0b 4c 00 00 10 9b 00 00 17 15 00 00 0a 81 00 00 1a f1
2025/10/20 11:00:50.716:Tag: 单相智能电表6(6) 等级:发送报文 信息:06 03 00 02 00 09 25 bb
2025/10/20 11:00:50.720:Tag: 单相智能电表6(6) 等级:信息日志 信息: modbus-> sendDataToSocket ok skid: 11 ret:8 m_bufLen:8 


2025/10/20 11:00:51.031:Tag: 单相智能电表6(6) 等级:错误日志 信息: modbus readDataFromSocketE ok skid: 11 ret:23 expRxLen:23 

2025/10/20 11:00:51.035:Tag: 单相智能电表6(6) 等级:接收报文 信息:06 03 12 50 cb 0b 97 00 00 11 84 00 00 17 f1 00 00 0a a7 00 00 b0 a3
2025/10/20 11:00:51.039:Tag: 单相智能电表7(7) 等级:发送报文 信息:07 03 00 02 00 09 24 6a
2025/10/20 11:00:51.043:Tag: 单相智能电表7(7) 等级:信息日志 信息: modbus-> sendDataToSocket ok skid: 11 ret:8 m_bufLen:8 

2025/10/20 11:00:51.303:Tag: 单相智能电表7(7) 等级:错误日志 信息: modbus readDataFromSocketE ok skid: 11 ret:23 expRxLen:23 

2025/10/20 11:00:51.306:Tag: 单相智能电表7(7) 等级:接收报文 信息:07 03 12 4c 0f 02 d1 00 00 05 73 00 00 05 79 00 00 00 4d 00 00 f6 cb
2025/10/20 11:00:51.310:Tag: 单相智能电表8(8) 等级:发送报文 信息:08 03 00 02 00 09 24 95
2025/10/20 11:00:51.313:Tag: 单相智能电表8(8) 等级:信息日志 信息: modbus-> sendDataToSocket ok skid: 11 ret:8 m_bufLen:8 

2025/10/20 11:00:51.623:Tag: 单相智能电表8(8) 等级:错误日志 信息: modbus readDataFromSocketE ok skid: 11 ret:23 expRxLen:23 

2025/10/20 11:00:51.626:Tag: 单相智能电表8(8) 等级:接收报文 信息:08 03 12 4c 62 07 74 00 00 08 ec 00 00 0e 8e 00 00 07 c8 00 00 e4 b5

2025/10/20 11:00:51.629:Tag: 单相智能电表9(9) 等级:发送报文 信息:09 03 00 02 00 09 25 44
2025/10/20 11:00:51.633:Tag: 单相智能电表9(9) 等级:信息日志 信息: modbus-> sendDataToSocket ok skid: 11 ret:8 m_bufLen:8 

2025/10/20 11:00:51.939:Tag: 单相智能电表9(9) 等级:错误日志 信息: modbus readDataFromSocketE ok skid: 11 ret:23 expRxLen:23 

2025/10/20 11:00:51.943:Tag: 单相智能电表9(9) 等级:接收报文 信息:09 03 12 48 55 0c 3a 00 00 0c 4c 00 00 16 9b 00 00 0d 1c 00 00 6e 2e
2025/10/20 11:00:51.945:Tag: 三相智能电表1（线路阻抗柜端口2）(51) 等级:发送报文 信息:33 03 00 0a 00 22 e1 c3
2025/10/20 11:00:51.947:Tag: 三相智能电表1（线路阻抗柜端口2）(51) 等级:信息日志 信息: modbus-> sendDataToSocket ok skid: 11 ret:8 m_bufLen:8 

2025/10/20 11:00:52.254:Tag: 线路阻抗模拟柜(1543468) 等级:接收报文 信息:0a 75 00 00 00 af 01 03 ac 43 5c 3a db 43 5c 76 43 43 5d 13 0b 43 be d3 3f 43 bf 30 df 43 bf 17 2a 41 48 20 6b 41 5b b5 7e 41 4c b6 5a 40 09 5a 4d 40 16 1f 30 40 11 c8 68 40 d8 a0 f2 3f ed 66 a4 3f f5 8a 4f 3f d7 39 d6 40 ae 8a b2 00 00 00 00 00 00 00 00 00 00 00 00 41 0b 2a a9 3f 47 3f 1e 42 48 00 00 43 bf 30 df 41 5b b5 7e 40 16 1f 30 43 39 4f 23 43 3d 95 66 43 45 be 44 43 a2 56 3a 43 a7 ba d6 43 a5 e5 4a 3f 0c 81 77 3f 19 46 6f 3f 10 0c 5b 3d 8f 85 5f 3d 9b 25 64 3d 8f bb 0e 3e 5d 32 e8 3d 96 f5 c5 3d ad 1e fa 3d b0 d4 be 3e 7a 74 bf

2025/10/20 11:00:52.260:Tag: 线路阻抗模拟柜(1543468) 等级:发送报文 信息:0a 76 00 00 00 06 01 03 00 87 00 56
2025/10/20 11:00:52.264:Tag: 线路阻抗模拟柜(1543468) 等级:信息日志 信息: modbus-> sendDataToSocket ok skid: 12 ret:12 m_bufLen:12 

2025/10/20 11:00:52.269:Tag: 三相智能电表1（线路阻抗柜端口2）(51) 等级:错误日志 信息: modbus readDataFromSocketE ok skid: 11 ret:73 expRxLen:73 

2025/10/20 11:00:52.274:Tag: 三相智能电表1（线路阻抗柜端口2）(51) 等级:接收报文 信息:33 03 44 43 50 1a b4 43 50 c8 4f 43 52 15 a1 43 b4 84 70 43 b5 60 00 43 b5 14 ec 40 f7 f3 0a 40 9f 9f 23 40 3f 04 88 44 8f a1 e5 44 5b 7e a8 44 0c 9b 0a 45 21 d7 5f 44 81 21 c8 43 ff 31 ea 43 83 22 f8 44 e1 b7 00 d5 ce
2025/10/20 11:00:52.279:Tag: 三相智能电表2（线路阻抗柜端口4）(52) 等级:发送报文 信息:34 03 00 0a 00 22 e0 74
2025/10/20 11:00:52.300:Tag: 三相智能电表2（线路阻抗柜端口4）(52) 等级:信息日志 信息: modbus-> sendDataToSocket ok skid: 11 ret:8 m_bufLen:8 

2025/10/20 11:00:52.569:Tag: 三相智能电表2（线路阻抗柜端口4）(52) 等级:错误日志 信息: modbus readDataFromSocketE ok skid: 11 ret:73 expRxLen:73 

2025/10/20 11:00:52.573:Tag: 三相智能电表2（线路阻抗柜端口4）(52) 等级:接收报文 信息:34 03 44 43 40 14 b1 43 47 f0 6d 43 4d 52 61 43 a9 c2 d1 43 af 7d 01 43 ac 1c ba 40 b9 67 e6 40 3a 9b 4f 3f 0b 6d 5b 44 2f cb 36 43 e1 ed 03 42 8b 03 7e 44 99 11 14 44 3e b6 07 43 8d cf e6 42 6f f7 b1 44 8a 4e ba bf 91

2025/10/20 11:00:52.578:Tag: 三相智能电表3（线路阻抗柜端口5）(53) 等级:发送报文 信息:35 03 00 0a 00 22 e1 a5
2025/10/20 11:00:52.582:Tag: 三相智能电表3（线路阻抗柜端口5）(53) 等级:信息日志 信息: modbus-> sendDataToSocket ok skid: 11 ret:8 m_bufLen:8 

2025/10/20 11:00:52.889:Tag: 三相智能电表3（线路阻抗柜端口5）(53) 等级:错误日志 信息: modbus readDataFromSocketE ok skid: 11 ret:73 expRxLen:73 

2025/10/20 11:00:52.892:Tag: 三相智能电表3（线路阻抗柜端口5）(53) 等级:接收报文 信息:35 03 44 43 3a 01 ed 43 44 b5 be 43 4c e1 5f 43 a5 be 3d 43 ad e7 dc 43 a9 53 3e 40 31 7a f0 3f 95 8a f6 3f 0d 33 95 43 a9 32 cb 43 57 10 ed 42 8c 32 2a 44 1b e3 e6 43 9c 16 c0 42 80 6a 70 42 70 a0 98 43 da 45 6e fe 7d
2025/10/20 11:00:52.895:Tag: 三相智能电表4（线路阻抗柜端口7）(54) 等级:发送报文 信息:36 03 00 0a 00 22 e1 96
2025/10/20 11:00:52.898:Tag: 三相智能电表4（线路阻抗柜端口7）(54) 等级:信息日志 信息: modbus-> sendDataToSocket ok skid: 11 ret:8 m_bufLen:8 

2025/10/20 11:00:53.154:Tag: 三相智能电表4（线路阻抗柜端口7）(54) 等级:错误日志 信息: modbus readDataFromSocketE ok skid: 11 ret:73 expRxLen:73 

2025/10/20 11:00:53.156:Tag: 三相智能电表4（线路阻抗柜端口7）(54) 等级:接收报文 信息:36 03 44 43 37 4d b0 43 43 45 35 43 4c 2a 8a 43 a3 f4 5e 43 ac f9 b2 43 a7 dc 3e 40 25 03 d1 3f 10 ed 8c 3f 0e 48 d6 c3 9d 48 1c c2 96 68 55 c2 88 6f 87 c3 e4 fe 12 c3 87 4a fc c2 67 b4 63 c2 7c 82 b3 c3 c3 d1 df 17 da

2025/10/20 11:00:53.160:Tag: 三相智能电表5(55) 等级:发送报文 信息:37 03 00 00 00 22 c0 45
2025/10/20 11:00:53.163:Tag: 三相智能电表5(55) 等级:信息日志 信息: modbus-> sendDataToSocket ok skid: 11 ret:8 m_bufLen:8 

2025/10/20 11:00:53.471:Tag: 三相智能电表5(55) 等级:错误日志 信息: modbus readDataFromSocketE ok skid: 11 ret:73 expRxLen:73 

2025/10/20 11:00:53.473:Tag: 三相智能电表5(55) 等级:接收报文 信息:37 03 44 66 66 43 3f 66 66 43 47 19 9a 43 4c 40 00 43 a9 33 33 43 ae d9 9a 43 ab 8b 44 40 2c bc 6a 40 54 4b c7 40 37 e4 26 3f 03 93 0c 3f 29 4c 98 3f 15 6f 00 3f e1 34 d7 3c ef fc b9 3d 07 d1 4e 3d 11 85 f0 3d c9 60 7b
2025/10/20 11:00:53.476:Tag: 三相智能电表6(56) 等级:发送报文 信息:38 03 00 00 00 22 c0 ba
2025/10/20 11:00:53.479:Tag: 三相智能电表6(56) 等级:信息日志 信息: modbus-> sendDataToSocket ok skid: 11 ret:8 m_bufLen:8 

2025/10/20 11:00:53.837:Tag: 三相智能电表6(56) 等级:错误日志 信息: modbus readDataFromSocketE ok skid: 11 ret:73 expRxLen:73 

2025/10/20 11:00:53.841:Tag: 三相智能电表6(56) 等级:接收报文 信息:38 03 44 00 00 00 00 00 00 00 00 00 00 00 00 00 00 00 00 00 00 00 00 00 00 00 00 00 00 00 00 00 00 00 00 00 00 00 00 00 00 00 00 00 00 00 00 00 00 00 00 00 00 00 00 00 00 00 00 00 00 00 00 00 00 00 00 00 00 00 00 aa a2

2025/10/20 11:00:53.847:Tag: 单相智能电表1(1) 等级:发送报文 信息:01 03 00 02 00 09 24 0c
2025/10/20 11:00:53.851:Tag: 单相智能电表1(1) 等级:信息日志 信息: modbus-> sendDataToSocket ok skid: 11 ret:8 m_bufLen:8 

2025/10/20 11:00:54.110:Tag: 单相智能电表1(1) 等级:错误日志 信息: modbus readDataFromSocketE ok skid: 11 ret:23 expRxLen:23 

2025/10/20 11:00:54.114:Tag: 单相智能电表1(1) 等级:接收报文 信息:01 03 12 4f 68 03 e4 00 00 07 ef 00 00 07 e5 00 00 00 03 00 00 48 13
2025/10/20 11:00:54.118:Tag: 单相智能电表2(2) 等级:发送报文 信息:02 03 00 02 00 09 24 3f
2025/10/20 11:00:54.122:Tag: 单相智能电表2(2) 等级:信息日志 信息: modbus-> sendDataToSocket ok skid: 11 ret:8 m_bufLen:8 

2025/10/20 11:00:54.433:Tag: 单相智能电表2(2) 等级:错误日志 信息: modbus readDataFromSocketE ok skid: 11 ret:23 expRxLen:23 

2025/10/20 11:00:54.437:Tag: 单相智能电表2(2) 等级:接收报文 信息:02 03 12 4f 5a 12 4c 00 00 1b b0 00 00 25 20 00 00 10 1a 00 00 89 5d
2025/10/20 11:00:54.441:Tag: 单相智能电表3(3) 等级:发送报文 信息:03 03 00 02 00 09 25 ee
2025/10/20 11:00:54.446:Tag: 单相智能电表3(3) 等级:信息日志 信息: modbus-> sendDataToSocket ok skid: 11 ret:8 m_bufLen:8 


2025/10/20 11:00:54.757:Tag: 单相智能电表3(3) 等级:错误日志 信息: modbus readDataFromSocketE ok skid: 11 ret:23 expRxLen:23 

2025/10/20 11:00:54.761:Tag: 单相智能电表3(3) 等级:接收报文 信息:03 03 12 4f b9 08 2d 00 00 05 88 00 00 10 a9 00 00 09 b5 00 00 1b 1f
2025/10/20 11:00:54.764:Tag: 单相智能电表4(4) 等级:发送报文 信息:04 03 00 02 00 09 24 59
2025/10/20 11:00:54.769:Tag: 单相智能电表4(4) 等级:信息日志 信息: modbus-> sendDataToSocket ok skid: 11 ret:8 m_bufLen:8 

2025/10/20 11:00:55.078:Tag: 单相智能电表4(4) 等级:错误日志 信息: modbus readDataFromSocketE ok skid: 11 ret:23 expRxLen:23 

2025/10/20 11:00:55.081:Tag: 单相智能电表4(4) 等级:接收报文 信息:04 03 12 51 1c 0c 1c 00 00 12 f7 00 00 19 1b 00 00 0a b7 00 00 ce 26
2025/10/20 11:00:55.083:Tag: 单相智能电表5(5) 等级:发送报文 信息:05 03 00 02 00 09 25 88
2025/10/20 11:00:55.086:Tag: 单相智能电表5(5) 等级:信息日志 信息: modbus-> sendDataToSocket ok skid: 11 ret:8 m_bufLen:8 

2025/10/20 11:00:55.140:Tag: 可控三项负载柜(1543484) 等级:接收报文 信息:0a 78 00 00 00 47 01 03 44 43 48 2f e3 43 4b ee 3c 43 4f 39 0c 43 ae fd 96 43 b2 09 5c 43 b0 6c 24 3f ad 11 c2 3f b0 c2 77 3f b6 3f ee 3e 62 06 ba 3e 69 b8 13 3e 74 78 29 3f 30 0d be 3e 1d 10 ad 3e 26 1a bd 3e 2e 0e a4 3e f8 9d 07

